  can0  18FF50E5   [8]  00 00 00 00 18 00 00 00
  can0  18FF50E5   [8]  00 00 00 00 18 00 00 00
  can0  18FF50E5   [8]  00 00 00 00 18 00 00 00
  can0  18FF50E5   [8]  00 00 00 00 18 00 00 00
  can0  18FF50E5   [8]  00 00 00 00 18 00 00 00
  can0  18FF50E5   [8]  00 00 00 00 18 00 00 00
  can0  18FF50E5   [8]  00 00 00 00 18 00 00 00
  can0  18FF50E5   [8]  00 00 00 00 18 00 00 00
  can0  18FF50E5   [8]  00 00 00 00 18 00 00 00
  can0  18FF50E5   [8]  00 00 00 00 18 00 00 00
  can0  18FF50E5   [8]  00 00 00 00 18 00 00 00
  can0  18FF50E5   [8]  00 00 00 00 18 00 00 00
  can0  18FF50E5   [8]  00 00 00 00 18 00 00 00
  can0  18FF50E5   [8]  00 00 00 00 18 00 00 00
  can0  18FF50E5   [8]  00 00 00 00 18 00 00 00
  can0  1806E5F4   [8]  02 22 00 00 00 36 00 00
  can0  18FF50E5   [8]  01 C6 00 00 00 00 00 00
  can0  1806E5F4   [8]  02 22 00 00 00 36 00 00
  can0  18FF50E5   [8]  01 C9 00 00 00 00 00 00
  can0  1806E5F4   [8]  02 22 00 00 00 36 00 00
  can0  18FF50E5   [8]  01 CA 00 00 00 00 00 00
  can0  1806E5F4   [8]  02 22 00 00 00 36 00 00
  can0  18FF50E5   [8]  01 CA 00 00 00 00 00 00
  can0  1806E5F4   [8]  02 22 00 00 00 36 00 00
  can0  1806E5F4   [8]  02 22 00 00 00 36 00 00
  can0  18FF50E5   [8]  01 CA 00 00 00 00 00 00
  can0  1806E5F4   [8]  02 22 00 00 00 36 00 00
  can0  1806E5F4   [8]  02 22 00 00 00 36 00 00
  can0  18FF50E5   [8]  01 CA 00 00 00 00 00 00
  can0  1806E5F4   [8]  02 22 00 00 00 36 00 00
  can0  1806E5F4   [8]  02 22 00 00 00 36 00 00
  can0  18FF50E5   [8]  01 CA 00 00 00 00 00 00
  can0  1806E5F4   [8]  02 22 00 00 00 36 00 00
  can0  1806E5F4   [8]  02 22 00 00 00 36 00 00
  can0  18FF50E5   [8]  01 CA 00 00 00 00 00 00
  can0  1806E5F4   [8]  02 22 00 00 00 36 00 00
  can0  1806E5F4   [8]  02 22 00 00 00 36 00 00
  can0  18FF50E5   [8]  01 CA 00 00 00 00 00 00
  can0  1806E5F4   [8]  02 22 00 00 00 36 00 00
  can0  1806E5F4   [8]  02 22 00 00 00 36 00 00
  can0  18FF50E5   [8]  01 CA 00 00 00 00 00 00
  can0  1806E5F4   [8]  02 22 00 00 00 36 00 00
  can0  1806E5F4   [8]  02 22 00 00 00 36 00 00
  can0  18FF50E5   [8]  01 CA 00 00 00 00 00 00
  can0  1806E5F4   [8]  02 22 00 00 00 36 00 00
  can0  1806E5F4   [8]  02 22 00 00 00 36 00 00
  can0  18FF50E5   [8]  01 CA 00 00 00 00 00 00
  can0  1806E5F4   [8]  02 22 00 00 00 36 00 00
  can0  1806E5F4   [8]  02 22 00 00 00 36 00 00
  can0  18FF50E5   [8]  01 CA 00 00 00 00 00 00
  can0  1806E5F4   [8]  02 22 00 00 00 36 00 00
  can0  1806E5F4   [8]  02 22 00 00 00 36 00 00
  can0  18FF50E5   [8]  01 CA 00 00 00 00 00 00
  can0  1806E5F4   [8]  02 22 00 00 00 36 00 00
  can0  1806E5F4   [8]  02 22 00 00 00 36 00 00
  can0  18FF50E5   [8]  01 CA 00 00 00 00 00 00
  can0  1806E5F4   [8]  02 22 00 00 00 36 00 00
  can0  18FF50E5   [8]  01 CA 00 00 00 00 00 00
  can0  1806E5F4   [8]  02 22 00 00 00 36 00 00
  can0  1806E5F4   [8]  02 22 00 00 00 36 00 00
  can0  18FF50E5   [8]  01 CA 00 00 00 00 00 00
  can0  1806E5F4   [8]  02 22 00 00 00 36 00 00
  can0  1806E5F4   [8]  02 22 00 00 00 36 00 00
  can0  18FF50E5   [8]  01 CA 00 00 00 00 00 00
  can0  1806E5F4   [8]  02 22 00 00 00 36 00 00
  can0  1806E5F4   [8]  02 22 00 00 00 36 00 00
  can0  18FF50E5   [8]  01 CA 00 00 00 00 00 00
  can0  1806E5F4   [8]  02 22 00 00 00 36 00 00
  can0  1806E5F4   [8]  02 22 00 00 00 36 00 00
  can0  18FF50E5   [8]  01 CA 00 00 00 00 00 00
  can0  1806E5F4   [8]  02 22 00 00 00 36 00 00
  can0  1806E5F4   [8]  02 22 00 00 00 36 00 00
  can0  18FF50E5   [8]  01 CA 00 00 00 00 00 00
  can0  1806E5F4   [8]  02 22 00 00 00 36 00 00
  can0  1806E5F4   [8]  02 22 00 00 00 36 00 00
  can0  18FF50E5   [8]  01 CA 00 00 00 00 00 00
  can0  1806E5F4   [8]  02 22 00 00 00 36 00 00
  can0  1806E5F4   [8]  02 22 00 00 00 36 00 00
  can0  18FF50E5   [8]  01 CA 00 00 00 00 00 00
  can0  1806E5F4   [8]  02 22 00 00 00 36 00 00
  can0  1806E5F4   [8]  02 22 00 00 00 36 00 00
  can0  18FF50E5   [8]  01 CA 00 00 00 00 00 00
  can0  1806E5F4   [8]  02 22 00 00 00 36 00 00
  can0  1806E5F4   [8]  02 22 00 00 00 36 00 00
  can0  18FF50E5   [8]  01 CA 00 00 00 00 00 00
  can0  1806E5F4   [8]  02 22 00 00 00 36 00 00
  can0  1806E5F4   [8]  02 22 00 00 00 36 00 00
  can0  18FF50E5   [8]  01 CA 00 00 00 00 00 00
  can0  1806E5F4   [8]  02 22 00 00 00 36 00 00
  can0  1806E5F4   [8]  02 22 00 00 00 36 00 00
  can0  18FF50E5   [8]  01 CA 00 00 00 00 00 00
  can0  1806E5F4   [8]  02 22 00 00 00 36 00 00
  can0  1806E5F4   [8]  02 22 00 00 00 36 00 00
  can0  18FF50E5   [8]  01 CA 00 00 00 00 00 00
  can0  1806E5F4   [8]  02 22 00 00 00 36 00 00
  can0  1806E5F4   [8]  02 22 00 00 00 36 00 00
  can0  18FF50E5   [8]  01 CA 00 00 00 00 00 00
  can0  1806E5F4   [8]  02 22 00 00 00 36 00 00
  can0  1806E5F4   [8]  02 22 00 00 00 36 00 00
  can0  18FF50E5   [8]  01 CA 00 00 00 00 00 00
  can0  1806E5F4   [8]  02 22 00 00 00 36 00 00
  can0  1806E5F4   [8]  02 22 00 00 00 36 00 00
  can0  18FF50E5   [8]  01 CA 00 00 00 00 00 00
  can0  1806E5F4   [8]  02 22 00 00 00 36 00 00
  can0  1806E5F4   [8]  02 22 00 00 00 36 00 00
  can0  18FF50E5   [8]  01 CA 00 00 00 00 00 00
  can0  1806E5F4   [8]  02 22 00 00 00 36 00 00
  can0  1806E5F4   [8]  02 22 00 00 00 36 00 00
  can0  18FF50E5   [8]  01 CA 00 00 00 00 00 00
  can0  1806E5F4   [8]  02 22 00 00 00 36 00 00
  can0  18FF50E5   [8]  01 CA 00 00 00 00 00 00
  can0  1806E5F4   [8]  02 22 00 00 00 36 00 00
  can0  1806E5F4   [8]  02 22 00 00 00 36 00 00
  can0  18FF50E5   [8]  01 CA 00 00 00 00 00 00
  can0  1806E5F4   [8]  02 22 00 00 00 36 00 00
  can0  1806E5F4   [8]  02 22 00 00 00 36 00 00
  can0  18FF50E5   [8]  01 CA 00 00 00 00 00 00
  can0  1806E5F4   [8]  02 22 00 00 00 36 00 00
  can0  1806E5F4   [8]  02 22 00 00 00 36 00 00
  can0  18FF50E5   [8]  01 CA 00 00 00 00 00 00
  can0  1806E5F4   [8]  02 22 00 00 00 36 00 00
  can0  1806E5F4   [8]  02 22 00 00 00 36 00 00
  can0  18FF50E5   [8]  01 CA 00 00 00 00 00 00
  can0  1806E5F4   [8]  02 22 00 00 00 36 00 00
  can0  1806E5F4   [8]  02 22 00 00 00 36 00 00
  can0  18FF50E5   [8]  01 CA 00 00 00 00 00 00
  can0  1806E5F4   [8]  02 22 00 00 00 36 00 00
  can0  1806E5F4   [8]  02 22 00 00 00 36 00 00
  can0  18FF50E5   [8]  01 CA 00 00 00 00 00 00
  can0  1806E5F4   [8]  02 22 00 00 00 36 00 00
  can0  1806E5F4   [8]  02 22 00 00 00 36 00 00
  can0  18FF50E5   [8]  01 CA 00 00 00 00 00 00
  can0  1806E5F4   [8]  02 22 00 00 00 36 00 00
  can0  1806E5F4   [8]  02 22 00 00 00 36 00 00
  can0  18FF50E5   [8]  01 CA 00 00 00 00 00 00
  can0  1806E5F4   [8]  02 22 00 00 00 36 00 00
  can0  1806E5F4   [8]  02 22 00 00 00 36 00 00
  can0  18FF50E5   [8]  01 CA 00 00 00 00 00 00
  can0  1806E5F4   [8]  02 22 00 00 00 36 00 00
  can0  1806E5F4   [8]  02 22 00 00 00 36 00 00
  can0  18FF50E5   [8]  01 CA 00 00 00 00 00 00
  can0  1806E5F4   [8]  02 22 00 00 00 36 00 00
  can0  1806E5F4   [8]  02 22 00 00 00 36 00 00
  can0  18FF50E5   [8]  01 CA 00 00 00 00 00 00
  can0  1806E5F4   [8]  02 22 00 00 00 36 00 00
  can0  1806E5F4   [8]  02 22 00 00 00 36 00 00
  can0  18FF50E5   [8]  01 CA 00 00 00 00 00 00
  can0  1806E5F4   [8]  02 22 00 00 00 36 00 00
  can0  1806E5F4   [8]  02 22 00 00 00 36 00 00
  can0  18FF50E5   [8]  01 CA 00 00 00 00 00 00
  can0  1806E5F4   [8]  02 22 00 00 00 36 00 00
  can0  1806E5F4   [8]  02 22 00 00 00 36 00 00
  can0  18FF50E5   [8]  01 CA 00 00 00 00 00 00
  can0  1806E5F4   [8]  02 22 00 00 00 36 00 00
  can0  1806E5F4   [8]  02 22 00 00 00 36 00 00
  can0  18FF50E5   [8]  01 CA 00 00 00 00 00 00
  can0  1806E5F4   [8]  02 22 00 00 00 36 00 00
  can0  1806E5F4   [8]  02 22 00 00 00 36 00 00
  can0  18FF50E5   [8]  01 CA 00 00 00 00 00 00
  can0  1806E5F4   [8]  02 22 00 00 00 36 00 00
  can0  1806E5F4   [8]  02 22 00 00 00 36 00 00
  can0  18FF50E5   [8]  01 CA 00 00 00 00 00 00
  can0  1806E5F4   [8]  02 22 00 00 00 36 00 00
  can0  1806E5F4   [8]  02 22 00 00 00 36 00 00
  can0  18FF50E5   [8]  01 CA 00 00 00 00 00 00
  can0  1806E5F4   [8]  02 22 00 00 00 36 00 00
  can0  1806E5F4   [8]  02 22 00 00 00 36 00 00
  can0  18FF50E5   [8]  01 CA 00 00 00 00 00 00
  can0  1806E5F4   [8]  02 22 00 00 00 36 00 00
  can0  18FF50E5   [8]  01 CA 00 00 00 00 00 00
  can0  1806E5F4   [8]  02 22 00 00 00 36 00 00
  can0  1806E5F4   [8]  02 22 00 00 00 36 00 00
  can0  18FF50E5   [8]  01 CA 00 00 00 00 00 00
  can0  1806E5F4   [8]  02 22 00 00 00 36 00 00
  can0  1806E5F4   [8]  02 22 00 00 00 36 00 00
  can0  18FF50E5   [8]  01 CA 00 00 00 00 00 00
  can0  1806E5F4   [8]  02 22 00 00 00 36 00 00
  can0  1806E5F4   [8]  02 22 00 00 00 36 00 00
  can0  18FF50E5   [8]  01 CA 00 00 00 00 00 00
  can0  1806E5F4   [8]  02 22 00 00 00 36 00 00
  can0  1806E5F4   [8]  02 22 00 00 00 36 00 00
  can0  18FF50E5   [8]  01 CA 00 00 00 00 00 00
  can0  1806E5F4   [8]  02 22 00 00 00 36 00 00
  can0  1806E5F4   [8]  02 22 00 00 00 36 00 00
  can0  18FF50E5   [8]  01 CA 00 00 00 00 00 00
  can0  1806E5F4   [8]  02 22 00 00 00 36 00 00
  can0  1806E5F4   [8]  02 22 00 00 00 36 00 00
  can0  18FF50E5   [8]  01 CA 00 00 00 00 00 00
  can0  1806E5F4   [8]  02 22 00 00 00 36 00 00
  can0  1806E5F4   [8]  02 22 00 00 00 36 00 00
  can0  18FF50E5   [8]  01 CA 00 00 00 00 00 00
  can0  1806E5F4   [8]  02 22 00 00 00 36 00 00
  can0  1806E5F4   [8]  02 22 00 00 00 36 00 00
  can0  18FF50E5   [8]  01 CA 00 00 00 00 00 00
  can0  1806E5F4   [8]  02 22 00 00 00 36 00 00
  can0  1806E5F4   [8]  02 22 00 00 00 36 00 00
  can0  18FF50E5   [8]  01 CA 00 00 00 00 00 00
  can0  1806E5F4   [8]  02 22 00 00 00 36 00 00
  can0  18FF50E5   [8]  01 CA 00 00 00 00 00 00
  can0  1806E5F4   [8]  02 22 00 00 00 36 00 00
  can0  1806E5F4   [8]  02 22 00 00 00 36 00 00
  can0  18FF50E5   [8]  01 CA 00 00 00 00 00 00
  can0  1806E5F4   [8]  02 22 00 00 00 36 00 00
  can0  1806E5F4   [8]  02 22 00 00 00 36 00 00
  can0  18FF50E5   [8]  01 CA 00 00 00 00 00 00
  can0  1806E5F4   [8]  02 22 00 00 00 36 00 00
  can0  1806E5F4   [8]  02 22 00 00 00 36 00 00
  can0  18FF50E5   [8]  01 CA 00 00 00 00 00 00
  can0  1806E5F4   [8]  02 22 00 00 00 36 00 00
  can0  1806E5F4   [8]  02 22 00 00 00 36 00 00
  can0  18FF50E5   [8]  01 CA 00 00 00 00 00 00
  can0  1806E5F4   [8]  02 22 00 00 00 36 00 00
  can0  1806E5F4   [8]  02 22 00 00 00 36 00 00
  can0  18FF50E5   [8]  01 CA 00 00 00 00 00 00
  can0  1806E5F4   [8]  02 22 00 00 00 36 00 00
  can0  18FF50E5   [8]  01 CA 00 00 00 00 00 00
  can0  1806E5F4   [8]  02 22 00 00 00 36 00 00
  can0  1806E5F4   [8]  02 22 00 00 00 36 00 00
  can0  18FF50E5   [8]  01 CA 00 00 00 00 00 00
  can0  1806E5F4   [8]  02 22 00 00 00 36 00 00
  can0  1806E5F4   [8]  02 22 00 00 00 36 00 00
  can0  18FF50E5   [8]  01 CA 00 00 00 00 00 00
  can0  1806E5F4   [8]  02 22 00 00 00 36 00 00
  can0  1806E5F4   [8]  02 22 00 00 00 36 00 00
  can0  18FF50E5   [8]  01 CA 00 00 00 00 00 00
  can0  1806E5F4   [8]  02 22 00 00 00 36 00 00
  can0  1806E5F4   [8]  02 22 00 00 00 36 00 00
  can0  18FF50E5   [8]  01 CA 00 00 00 00 00 00
  can0  1806E5F4   [8]  02 22 00 00 00 36 00 00
  can0  1806E5F4   [8]  02 22 00 00 00 36 00 00
  can0  18FF50E5   [8]  01 CA 00 00 00 00 00 00
  can0  1806E5F4   [8]  02 22 00 00 00 36 00 00
  can0  1806E5F4   [8]  02 22 00 00 00 36 00 00
  can0  18FF50E5   [8]  01 CA 00 00 00 00 00 00
  can0  1806E5F4   [8]  02 22 00 00 00 36 00 00
  can0  1806E5F4   [8]  02 22 00 00 00 36 00 00
  can0  18FF50E5   [8]  01 CA 00 00 00 00 00 00
  can0  1806E5F4   [8]  02 22 00 00 00 36 00 00
  can0  1806E5F4   [8]  02 22 00 00 00 36 00 00
  can0  18FF50E5   [8]  01 CA 00 00 00 00 00 00
  can0  1806E5F4   [8]  02 22 00 00 00 36 00 00
  can0  1806E5F4   [8]  02 22 00 00 00 36 00 00
  can0  18FF50E5   [8]  01 CA 00 00 00 00 00 00
  can0  1806E5F4   [8]  02 22 00 00 00 36 00 00
  can0  1806E5F4   [8]  02 22 00 00 00 36 00 00
  can0  18FF50E5   [8]  01 CA 00 00 00 00 00 00
  can0  1806E5F4   [8]  02 22 00 00 00 36 00 00
  can0  1806E5F4   [8]  02 22 00 00 00 36 00 00
  can0  18FF50E5   [8]  01 CA 00 00 00 00 00 00
  can0  1806E5F4   [8]  02 22 00 00 00 36 00 00
  can0  1806E5F4   [8]  02 22 00 00 00 36 00 00
  can0  18FF50E5   [8]  01 CA 00 00 00 00 00 00
  can0  1806E5F4   [8]  02 22 00 00 00 36 00 00
  can0  1806E5F4   [8]  02 22 00 00 00 36 00 00
  can0  18FF50E5   [8]  01 CA 00 00 00 00 00 00
  can0  1806E5F4   [8]  02 22 00 00 00 36 00 00
  can0  1806E5F4   [8]  02 22 00 00 00 36 00 00
  can0  18FF50E5   [8]  01 CA 00 00 00 00 00 00
  can0  1806E5F4   [8]  02 22 00 00 00 36 00 00
  can0  1806E5F4   [8]  02 22 00 00 00 36 00 00
  can0  18FF50E5   [8]  01 CA 00 00 00 00 00 00
  can0  1806E5F4   [8]  02 22 00 00 00 36 00 00
  can0  1806E5F4   [8]  02 22 00 00 00 36 00 00
  can0  18FF50E5   [8]  01 CA 00 00 00 00 00 00
  can0  1806E5F4   [8]  02 22 00 00 00 36 00 00
  can0  1806E5F4   [8]  02 22 00 00 00 36 00 00
  can0  18FF50E5   [8]  01 CA 00 00 00 00 00 00
  can0  1806E5F4   [8]  02 22 00 00 00 36 00 00
  can0  1806E5F4   [8]  02 22 00 00 00 36 00 00
  can0  18FF50E5   [8]  01 CA 00 00 00 00 00 00
  can0  1806E5F4   [8]  02 22 00 00 00 36 00 00
  can0  1806E5F4   [8]  02 22 00 00 00 36 00 00
  can0  18FF50E5   [8]  01 CA 00 00 00 00 00 00
  can0  1806E5F4   [8]  02 22 00 00 00 36 00 00
  can0  18FF50E5   [8]  01 CA 00 00 00 00 00 00
  can0  1806E5F4   [8]  02 22 00 00 00 36 00 00
  can0  1806E5F4   [8]  02 22 00 00 00 36 00 00
  can0  18FF50E5   [8]  01 CA 00 00 00 00 00 00
  can0  1806E5F4   [8]  02 22 00 00 00 36 00 00
  can0  1806E5F4   [8]  02 22 00 00 00 36 00 00
  can0  18FF50E5   [8]  01 CA 00 00 00 00 00 00
  can0  1806E5F4   [8]  02 22 00 00 00 36 00 00
  can0  1806E5F4   [8]  02 22 00 00 00 36 00 00
  can0  18FF50E5   [8]  01 CA 00 00 00 00 00 00
  can0  1806E5F4   [8]  02 22 00 00 00 36 00 00
  can0  1806E5F4   [8]  02 22 00 00 00 36 00 00
  can0  18FF50E5   [8]  01 CA 00 00 00 00 00 00
  can0  1806E5F4   [8]  02 22 00 00 00 36 00 00
  can0  1806E5F4   [8]  02 22 00 00 00 36 00 00
  can0  18FF50E5   [8]  01 CA 00 00 00 00 00 00
  can0  1806E5F4   [8]  02 22 00 00 00 36 00 00
  can0  1806E5F4   [8]  02 22 00 00 00 36 00 00
  can0  18FF50E5   [8]  01 CA 00 00 00 00 00 00
  can0  1806E5F4   [8]  02 22 00 00 00 36 00 00
  can0  1806E5F4   [8]  02 22 00 00 00 36 00 00
  can0  18FF50E5   [8]  01 CA 00 00 00 00 00 00
  can0  1806E5F4   [8]  02 22 00 00 00 36 00 00
  can0  1806E5F4   [8]  02 22 00 00 00 36 00 00
  can0  18FF50E5   [8]  01 CA 00 00 00 00 00 00
  can0  1806E5F4   [8]  02 22 00 00 00 36 00 00
  can0  1806E5F4   [8]  02 22 00 00 00 36 00 00
  can0  18FF50E5   [8]  01 CA 00 00 00 00 00 00
  can0  1806E5F4   [8]  02 22 00 00 00 36 00 00
  can0  1806E5F4   [8]  02 22 00 00 00 36 00 00
  can0  18FF50E5   [8]  01 CA 00 00 00 00 00 00
  can0  1806E5F4   [8]  02 22 00 00 00 36 00 00
  can0  1806E5F4   [8]  02 22 00 00 00 36 00 00
  can0  18FF50E5   [8]  01 CA 00 00 00 00 00 00
  can0  1806E5F4   [8]  02 22 00 00 00 36 00 00
  can0  1806E5F4   [8]  02 22 00 00 00 36 00 00
  can0  18FF50E5   [8]  01 CA 00 00 00 00 00 00
  can0  1806E5F4   [8]  02 22 00 00 00 36 00 00
  can0  1806E5F4   [8]  02 22 00 00 00 36 00 00
  can0  18FF50E5   [8]  01 CA 00 00 00 00 00 00
  can0  1806E5F4   [8]  02 22 00 00 00 36 00 00
  can0  1806E5F4   [8]  02 22 00 00 00 36 00 00
  can0  18FF50E5   [8]  01 CA 00 00 00 00 00 00
  can0  1806E5F4   [8]  02 22 00 00 00 36 00 00
  can0  18FF50E5   [8]  01 CA 00 00 00 00 00 00
  can0  1806E5F4   [8]  02 22 00 00 00 36 00 00
  can0  1806E5F4   [8]  02 22 00 00 00 36 00 00
  can0  18FF50E5   [8]  01 CA 00 00 00 00 00 00
  can0  1806E5F4   [8]  02 22 00 00 00 36 00 00
  can0  1806E5F4   [8]  02 22 00 00 00 36 00 00
  can0  18FF50E5   [8]  01 CA 00 00 00 00 00 00
  can0  1806E5F4   [8]  02 22 00 00 00 36 00 00
  can0  1806E5F4   [8]  02 22 00 00 00 36 00 00
  can0  18FF50E5   [8]  01 CA 00 00 00 00 00 00
  can0  1806E5F4   [8]  02 22 00 00 00 36 00 00
  can0  1806E5F4   [8]  02 22 00 00 00 36 00 00
  can0  18FF50E5   [8]  01 CA 00 00 00 00 00 00
  can0  1806E5F4   [8]  02 22 00 00 00 36 00 00
  can0  1806E5F4   [8]  02 22 00 00 00 36 00 00
  can0  18FF50E5   [8]  01 CA 00 00 00 00 00 00
  can0  1806E5F4   [8]  02 22 00 00 00 36 00 00
  can0  1806E5F4   [8]  02 22 00 00 00 36 00 00
  can0  18FF50E5   [8]  01 CA 00 00 00 00 00 00
  can0  1806E5F4   [8]  02 22 00 00 00 36 00 00
  can0  1806E5F4   [8]  02 22 00 00 00 36 00 00
  can0  18FF50E5   [8]  01 CA 00 00 00 00 00 00
  can0  1806E5F4   [8]  02 22 00 00 00 36 00 00
  can0  1806E5F4   [8]  02 22 00 00 00 36 00 00
  can0  18FF50E5   [8]  01 CA 00 00 00 00 00 00
  can0  1806E5F4   [8]  02 22 00 00 00 36 00 00
  can0  1806E5F4   [8]  02 22 00 00 00 36 00 00
  can0  18FF50E5   [8]  01 CA 00 00 00 00 00 00
  can0  1806E5F4   [8]  02 22 00 00 00 36 00 00
  can0  1806E5F4   [8]  02 22 00 00 00 36 00 00
  can0  18FF50E5   [8]  01 CA 00 00 00 00 00 00
  can0  1806E5F4   [8]  02 22 00 00 00 36 00 00
  can0  1806E5F4   [8]  02 22 00 00 00 36 00 00
  can0  18FF50E5   [8]  01 CA 00 00 00 00 00 00
  can0  1806E5F4   [8]  02 22 00 00 00 36 00 00
  can0  1806E5F4   [8]  02 22 00 00 00 36 00 00
  can0  18FF50E5   [8]  01 CA 00 00 00 00 00 00
  can0  1806E5F4   [8]  02 22 00 00 00 36 00 00
  can0  1806E5F4   [8]  02 22 00 00 00 36 00 00
  can0  18FF50E5   [8]  01 CA 00 00 00 00 00 00
  can0  1806E5F4   [8]  02 22 00 00 00 36 00 00
  can0  1806E5F4   [8]  02 22 00 00 00 36 00 00
  can0  18FF50E5   [8]  01 CA 00 00 00 00 00 00
  can0  1806E5F4   [8]  02 22 00 00 00 36 00 00
  can0  18FF50E5   [8]  01 CA 00 00 00 00 00 00
  can0  1806E5F4   [8]  02 22 00 00 00 36 00 00
  can0  1806E5F4   [8]  02 22 00 00 00 36 00 00
  can0  18FF50E5   [8]  01 CA 00 00 00 00 00 00
  can0  1806E5F4   [8]  02 22 00 00 00 36 00 00
  can0  1806E5F4   [8]  02 22 00 00 00 36 00 00
  can0  18FF50E5   [8]  01 CA 00 00 00 00 00 00
  can0  1806E5F4   [8]  02 22 00 00 00 36 00 00
  can0  1806E5F4   [8]  02 22 00 00 00 36 00 00
  can0  18FF50E5   [8]  01 CA 00 00 00 00 00 00
  can0  1806E5F4   [8]  02 22 00 00 00 36 00 00
  can0  1806E5F4   [8]  02 22 00 00 00 36 00 00
  can0  18FF50E5   [8]  01 CA 00 00 00 00 00 00
  can0  1806E5F4   [8]  02 22 00 00 00 36 00 00
  can0  18FF50E5   [8]  01 CA 00 00 00 00 00 00
  can0  1806E5F4   [8]  02 22 00 00 00 36 00 00
  can0  1806E5F4   [8]  02 22 00 00 00 36 00 00
  can0  18FF50E5   [8]  01 CA 00 00 00 00 00 00
  can0  1806E5F4   [8]  02 22 00 00 00 36 00 00
  can0  1806E5F4   [8]  02 22 00 00 00 36 00 00
  can0  18FF50E5   [8]  01 CA 00 00 00 00 00 00
  can0  1806E5F4   [8]  02 22 00 00 00 36 00 00
  can0  1806E5F4   [8]  02 22 00 00 00 36 00 00
  can0  18FF50E5   [8]  01 CA 00 00 00 00 00 00
  can0  1806E5F4   [8]  02 22 00 00 00 36 00 00
  can0  1806E5F4   [8]  02 22 00 00 00 36 00 00
  can0  18FF50E5   [8]  01 CA 00 00 00 00 00 00
  can0  1806E5F4   [8]  02 22 00 00 00 36 00 00
  can0  1806E5F4   [8]  02 22 00 00 00 36 00 00
  can0  18FF50E5   [8]  01 CA 00 00 00 00 00 00
  can0  1806E5F4   [8]  02 22 00 00 00 36 00 00
  can0  1806E5F4   [8]  02 22 00 00 00 36 00 00
  can0  18FF50E5   [8]  01 CA 00 00 00 00 00 00
  can0  1806E5F4   [8]  02 22 00 00 00 36 00 00
  can0  1806E5F4   [8]  02 22 00 00 00 36 00 00
  can0  18FF50E5   [8]  01 CA 00 00 00 00 00 00
  can0  1806E5F4   [8]  02 22 00 00 00 36 00 00
  can0  1806E5F4   [8]  02 22 00 00 00 36 00 00
  can0  18FF50E5   [8]  01 CA 00 00 00 00 00 00
  can0  1806E5F4   [8]  02 22 00 00 00 36 00 00
  can0  1806E5F4   [8]  02 22 00 00 00 36 00 00
  can0  18FF50E5   [8]  01 CA 00 00 00 00 00 00
  can0  1806E5F4   [8]  02 22 00 00 00 36 00 00
  can0  1806E5F4   [8]  02 22 00 00 00 36 00 00
  can0  18FF50E5   [8]  01 CA 00 00 00 00 00 00
  can0  1806E5F4   [8]  02 22 00 00 00 36 00 00
  can0  1806E5F4   [8]  02 22 00 00 00 36 00 00
  can0  18FF50E5   [8]  01 CA 00 00 00 00 00 00
  can0  1806E5F4   [8]  02 22 00 00 00 36 00 00
  can0  1806E5F4   [8]  02 22 00 00 00 36 00 00
  can0  18FF50E5   [8]  01 CA 00 00 00 00 00 00
  can0  1806E5F4   [8]  02 22 00 00 00 36 00 00
  can0  1806E5F4   [8]  02 22 00 00 00 36 00 00
  can0  18FF50E5   [8]  01 CA 00 00 00 00 00 00
  can0  1806E5F4   [8]  02 22 00 00 00 36 00 00
  can0  1806E5F4   [8]  02 22 00 00 00 36 00 00
  can0  18FF50E5   [8]  01 CA 00 00 00 00 00 00
  can0  1806E5F4   [8]  02 22 00 00 00 36 00 00
  can0  1806E5F4   [8]  02 22 00 00 00 36 00 00
  can0  18FF50E5   [8]  01 CA 00 00 00 00 00 00
  can0  1806E5F4   [8]  02 22 00 00 01 36 00 00
  can0  1806E5F4   [8]  02 22 00 00 00 36 00 00
  can0  18FF50E5   [8]  01 CA 00 00 00 00 00 00
  can0  1806E5F4   [8]  02 22 00 00 00 36 00 00
  can0  18FF50E5   [8]  01 CA 00 00 00 00 00 00
  can0  1806E5F4   [8]  02 22 00 00 01 36 00 00
  can0  18FF50E5   [8]  01 B5 00 00 00 00 00 00
  can0  1806E5F4   [8]  02 22 00 00 01 36 00 00
  can0  18FF50E5   [8]  01 71 00 00 00 00 00 00
  can0  1806E5F4   [8]  02 22 00 00 01 36 00 00
  can0  18FF50E5   [8]  01 38 00 00 00 00 00 00
  can0  1806E5F4   [8]  02 22 00 00 01 36 00 00
  can0  18FF50E5   [8]  01 0C 00 00 00 00 00 00
  can0  1806E5F4   [8]  02 22 00 00 01 36 00 00
  can0  18FF50E5   [8]  00 E3 00 00 00 00 00 00
  can0  1806E5F4   [8]  02 22 00 00 01 36 00 00
  can0  18FF50E5   [8]  00 C0 00 00 00 00 00 00
  can0  1806E5F4   [8]  02 22 00 00 01 36 00 00
  can0  18FF50E5   [8]  00 A3 00 00 00 00 00 00
  can0  1806E5F4   [8]  02 22 00 00 01 36 00 00
  can0  18FF50E5   [8]  00 8A 00 00 08 00 00 00
  can0  1806E5F4   [8]  02 22 00 00 01 36 00 00
  can0  18FF50E5   [8]  00 76 00 00 08 00 00 00
  can0  1806E5F4   [8]  02 22 00 00 01 36 00 00
  can0  18FF50E5   [8]  00 65 00 00 08 00 00 00
  can0  1806E5F4   [8]  02 22 00 00 01 36 00 00
  can0  18FF50E5   [8]  00 56 00 00 08 00 00 00
  can0  1806E5F4   [8]  02 22 00 00 01 36 00 00
  can0  18FF50E5   [8]  00 49 00 00 08 00 00 00
  can0  1806E5F4   [8]  02 22 00 00 01 36 00 00
  can0  18FF50E5   [8]  00 3E 00 00 08 00 00 00
  can0  1806E5F4   [8]  02 22 00 00 01 36 00 00
  can0  18FF50E5   [8]  00 35 00 00 08 00 00 00
  can0  1806E5F4   [8]  02 22 00 00 01 36 00 00
  can0  18FF50E5   [8]  00 2D 00 00 08 00 00 00
  can0  1806E5F4   [8]  02 22 00 00 01 36 00 00
  can0  18FF50E5   [8]  00 27 00 00 08 00 00 00
  can0  1806E5F4   [8]  02 22 00 00 01 36 00 00
  can0  18FF50E5   [8]  00 21 00 00 08 00 00 00
  can0  1806E5F4   [8]  02 22 00 00 01 36 00 00
  can0  18FF50E5   [8]  00 1C 00 00 08 00 00 00
  can0  1806E5F4   [8]  02 22 00 00 01 36 00 00
  can0  18FF50E5   [8]  00 00 00 00 08 00 00 00
  can0  1806E5F4   [8]  02 22 00 00 01 36 00 00
  can0  18FF50E5   [8]  00 00 00 00 08 00 00 00
  can0  1806E5F4   [8]  02 22 00 00 01 36 00 00
  can0  18FF50E5   [8]  00 00 00 00 08 00 00 00
  can0  1806E5F4   [8]  02 22 00 00 01 36 00 00
  can0  18FF50E5   [8]  00 00 00 00 08 00 00 00
  can0  1806E5F4   [8]  02 22 00 00 01 36 00 00
  can0  18FF50E5   [8]  00 00 00 00 08 00 00 00
  can0  1806E5F4   [8]  02 22 00 00 01 36 00 00
  can0  18FF50E5   [8]  00 00 00 00 08 00 00 00
  can0  1806E5F4   [8]  02 22 00 00 01 36 00 00
  can0  18FF50E5   [8]  00 00 00 00 08 00 00 00
  can0  1806E5F4   [8]  02 22 00 00 01 36 00 00
  can0  18FF50E5   [8]  00 00 00 00 08 00 00 00
  can0  1806E5F4   [8]  02 22 00 00 01 36 00 00
  can0  18FF50E5   [8]  00 00 00 00 08 00 00 00
  can0  1806E5F4   [8]  02 22 00 00 01 36 00 00
  can0  18FF50E5   [8]  00 00 00 00 08 00 00 00
  can0  1806E5F4   [8]  02 22 00 00 01 36 00 00
  can0  18FF50E5   [8]  00 00 00 00 08 00 00 00
  can0  1806E5F4   [8]  02 22 00 00 01 36 00 00
  can0  18FF50E5   [8]  00 00 00 00 08 00 00 00
  can0  1806E5F4   [8]  02 22 00 00 01 36 00 00
  can0  18FF50E5   [8]  00 00 00 00 08 00 00 00
  can0  1806E5F4   [8]  02 22 00 00 01 36 00 00
  can0  18FF50E5   [8]  00 00 00 00 08 00 00 00
  can0  1806E5F4   [8]  02 22 00 00 01 36 00 00
  can0  18FF50E5   [8]  00 00 00 00 08 00 00 00
  can0  1806E5F4   [8]  02 22 00 00 01 36 00 00
  can0  18FF50E5   [8]  00 00 00 00 08 00 00 00
  can0  18FF50E5   [8]  00 00 00 00 08 00 00 00
  can0  1806E5F4   [8]  02 22 00 00 01 36 00 00
  can0  18FF50E5   [8]  00 00 00 00 08 00 00 00
  can0  1806E5F4   [8]  02 22 00 00 01 36 00 00
  can0  18FF50E5   [8]  00 00 00 00 08 00 00 00
  can0  1806E5F4   [8]  02 22 00 00 01 36 00 00
  can0  18FF50E5   [8]  00 00 00 00 08 00 00 00
  can0  1806E5F4   [8]  02 22 00 00 01 36 00 00
  can0  18FF50E5   [8]  00 00 00 00 08 00 00 00
  can0  1806E5F4   [8]  02 22 00 00 01 36 00 00
  can0  18FF50E5   [8]  00 00 00 00 08 00 00 00
  can0  1806E5F4   [8]  02 22 00 00 01 36 00 00
  can0  18FF50E5   [8]  00 00 00 00 08 00 00 00
  can0  1806E5F4   [8]  02 22 00 00 01 36 00 00
  can0  18FF50E5   [8]  00 00 00 00 08 00 00 00
  can0  1806E5F4   [8]  02 22 00 00 01 36 00 00
  can0  18FF50E5   [8]  00 00 00 00 08 00 00 00
  can0  1806E5F4   [8]  02 22 00 00 01 36 00 00
  can0  18FF50E5   [8]  00 00 00 00 08 00 00 00
  can0  1806E5F4   [8]  02 22 00 00 01 36 00 00
  can0  18FF50E5   [8]  00 00 00 00 08 00 00 00
  can0  1806E5F4   [8]  02 22 00 00 01 36 00 00
  can0  18FF50E5   [8]  00 00 00 00 08 00 00 00
  can0  1806E5F4   [8]  02 22 00 00 01 36 00 00
  can0  18FF50E5   [8]  00 00 00 00 08 00 00 00
