  can0  080   [0] 
  can0  228   [1]  00
  can0  1A8   [8]  00 00 00 00 00 00 00 00
  can0  2A8   [8]  00 00 00 00 00 00 00 00
  can0  3A8   [6]  00 00 00 00 00 00
  can0  4A8   [8]  00 00 00 00 00 00 00 00
  can0  18FF50E5   [8]  00 00 00 00 18 00 00 00
  can0       728   [1]  05
  can0       080   [0] 
  can0       228   [1]  00
  can0       1A8   [8]  00 00 00 00 00 00 00 00
  can0       2A8   [8]  00 00 00 00 00 00 00 00
  can0       3A8   [6]  00 00 00 00 00 00
  can0       4A8   [8]  00 00 00 00 00 00 00 00
  can0  1806E5F4   [8]  00 00 00 00 01 01 00 00
  can0       080   [0] 
  can0       228   [1]  00
  can0       1A8   [8]  00 00 00 00 00 00 00 00
  can0       2A8   [8]  00 00 00 00 00 00 00 00
  can0       3A8   [6]  00 00 00 00 00 00
  can0       4A8   [8]  00 00 00 00 00 00 00 00
  can0       080   [0] 
  can0       228   [1]  00
  can0       1A8   [8]  09 34 00 00 00 00 00 00
  can0       2A8   [8]  88 13 00 00 00 00 00 00
  can0       3A8   [6]  00 00 58 02 58 02
  can0       4A8   [8]  26 00 26 00 32 00 32 00
  can0       701   [1]  05
  can0       080   [0] 
  can0       228   [1]  00
  can0       1A8   [8]  09 34 00 00 00 00 00 00
  can0       2A8   [8]  88 13 00 00 00 00 00 00
  can0       3A8   [6]  00 00 58 02 58 02
  can0       4A8   [8]  26 00 26 00 32 00 32 00
  can0  1806E5F4   [8]  00 00 00 00 01 01 00 00
  can0       080   [0] 
  can0       228   [1]  00
  can0       1A8   [8]  09 34 00 00 00 00 00 00
  can0       2A8   [8]  88 13 00 00 00 00 00 00
  can0       3A8   [6]  00 00 58 02 58 02
  can0       4A8   [8]  26 00 26 00 32 00 32 00
  can0       728   [1]  05
  can0       080   [0] 
  can0       228   [1]  00
  can0       1A8   [8]  09 34 00 00 00 00 00 00
  can0       2A8   [8]  88 13 00 00 00 00 00 00
  can0       3A8   [6]  00 00 58 02 58 02
  can0       4A8   [8]  26 00 26 00 32 00 32 00
  can0  1806E5F4   [8]  00 00 00 00 01 01 00 00
  can0       080   [0] 
  can0       228   [1]  00
  can0       1A8   [8]  09 34 00 00 00 00 00 00
  can0       2A8   [8]  88 13 00 00 00 00 00 00
  can0       3A8   [6]  00 00 58 02 58 02
  can0       4A8   [8]  26 00 26 00 32 00 32 00
  can0       080   [0] 
  can0       228   [1]  00
  can0       1A8   [8]  09 34 00 00 00 00 00 00
  can0       2A8   [8]  88 13 00 00 00 00 00 00
  can0       3A8   [6]  00 00 58 02 58 02
  can0       4A8   [8]  26 00 26 00 32 00 32 00
  can0       701   [1]  05
  can0       080   [0] 
  can0       228   [1]  00
  can0       1A8   [8]  09 34 00 00 00 00 00 00
  can0       2A8   [8]  88 13 00 00 00 00 00 00
  can0       3A8   [6]  00 00 58 02 58 02
  can0       4A8   [8]  26 00 26 00 32 00 32 00
  can0  1806E5F4   [8]  02 22 01 F4 01 56 00 00
  can0       080   [0] 
  can0       228   [1]  00
  can0       1A8   [8]  09 34 00 00 95 14 00 00
  can0       2A8   [8]  88 13 00 00 56 0D 1E 00
  can0       3A8   [6]  00 00 58 02 58 02
  can0       4A8   [8]  26 00 26 00 32 00 32 00
  can0  18FF50E5   [8]  00 00 00 00 08 00 00 00
  can0       728   [1]  05
  can0       080   [0] 
  can0       228   [1]  00
  can0       1A8   [8]  09 34 00 00 95 14 00 00
  can0       2A8   [8]  88 13 00 00 56 0D 1E 00
  can0       3A8   [6]  00 00 58 02 58 02
  can0       4A8   [8]  26 00 26 00 32 00 32 00
  can0  1806E5F4   [8]  02 22 01 F4 01 56 00 00
  can0       080   [0] 
  can0       228   [1]  00
  can0       1A8   [8]  09 34 00 00 95 14 00 00
  can0       2A8   [8]  88 13 00 00 56 0D 1E 00
  can0       3A8   [6]  00 00 58 02 58 02
  can0       4A8   [8]  26 00 26 00 32 00 32 00
  can0       080   [0] 
  can0       228   [1]  00
  can0       1A8   [8]  09 34 00 00 95 14 00 00
  can0       2A8   [8]  88 13 00 00 56 0D 1E 00
  can0       3A8   [6]  00 00 58 02 58 02
  can0       4A8   [8]  26 00 26 00 32 00 32 00
  can0       701   [1]  05
  can0       080   [0] 
  can0       228   [1]  00
  can0       1A8   [8]  09 34 00 00 95 14 00 00
  can0       2A8   [8]  88 13 00 00 56 0D 1E 00
  can0       3A8   [6]  00 00 58 02 58 02
  can0       4A8   [8]  26 00 26 00 32 00 32 00
  can0  1806E5F4   [8]  02 22 01 F4 01 56 00 00
  can0       080   [0] 
  can0       228   [1]  00
  can0       1A8   [8]  09 34 00 00 95 14 00 00
  can0       2A8   [8]  88 13 00 00 56 0D 1E 00
  can0       3A8   [6]  00 00 58 02 58 02
  can0       4A8   [8]  26 00 26 00 32 00 32 00
  can0       728   [1]  05
  can0       080   [0] 
  can0       228   [1]  00
  can0       1A8   [8]  09 34 00 00 95 14 00 00
  can0       2A8   [8]  88 13 00 00 56 0D 1E 00
  can0       3A8   [6]  00 00 58 02 58 02
  can0       4A8   [8]  26 00 26 00 32 00 32 00
  can0  1806E5F4   [8]  02 22 01 F4 01 56 00 00
  can0       080   [0] 
  can0       228   [1]  00
  can0       1A8   [8]  09 34 00 00 95 14 00 00
  can0       2A8   [8]  88 13 00 00 56 0D 1E 00
  can0       3A8   [6]  00 00 58 02 58 02
  can0       4A8   [8]  26 00 26 00 32 00 32 00
  can0       080   [0] 
  can0       228   [1]  00
  can0       1A8   [8]  09 00 00 00 95 14 00 00
  can0       2A8   [8]  E5 0F CF 0F 56 0D 1E 00
  can0       3A8   [6]  00 00 58 02 58 02
  can0       4A8   [8]  26 00 26 00 32 00 32 00
  can0       701   [1]  05
  can0       080   [0] 
  can0       228   [1]  00
  can0       1A8   [8]  09 00 00 00 95 14 00 00
  can0       2A8   [8]  E5 0F CF 0F 56 0D 1E 00
  can0       3A8   [6]  00 00 58 02 58 02
  can0       4A8   [8]  26 00 26 00 32 00 32 00
  can0  1806E5F4   [8]  02 22 01 F4 01 56 00 00
  can0       080   [0] 
  can0       228   [1]  00
  can0       1A8   [8]  09 00 00 00 95 14 00 00
  can0       2A8   [8]  E5 0F CF 0F 56 0D 1E 00
  can0       3A8   [6]  00 00 58 02 58 02
  can0       4A8   [8]  26 00 26 00 32 00 32 00
  can0  18FF50E5   [8]  00 00 00 00 08 00 00 00
  can0       728   [1]  05
  can0       080   [0] 
  can0       228   [1]  00
  can0       1A8   [8]  09 00 00 00 95 14 00 00
  can0       2A8   [8]  E5 0F CF 0F 56 0D 1E 00
  can0       3A8   [6]  00 00 58 02 58 02
  can0       4A8   [8]  26 00 26 00 32 00 32 00
  can0  1806E5F4   [8]  02 22 01 F4 01 56 00 00
  can0       080   [0] 
  can0       228   [1]  00
  can0       1A8   [8]  09 00 00 00 95 14 00 00
  can0       2A8   [8]  E5 0F CF 0F 56 0D 1E 00
  can0       3A8   [6]  00 00 58 02 58 02
  can0       4A8   [8]  26 00 26 00 32 00 32 00
  can0       080   [0] 
  can0       228   [1]  00
  can0       1A8   [8]  09 00 00 00 95 14 00 00
  can0       2A8   [8]  E5 0F CF 0F 56 0D 1E 00
  can0       3A8   [6]  00 00 58 02 58 02
  can0       4A8   [8]  26 00 26 00 32 00 32 00
  can0       701   [1]  05
  can0       080   [0] 
  can0       228   [1]  00
  can0       1A8   [8]  09 00 00 00 95 14 00 00
  can0       2A8   [8]  E5 0F CF 0F 56 0D 1E 00
  can0       3A8   [6]  00 00 58 02 58 02
  can0       4A8   [8]  26 00 26 00 32 00 32 00
  can0  1806E5F4   [8]  02 22 01 F4 01 56 00 00
  can0       080   [0] 
  can0       228   [1]  00
  can0       1A8   [8]  09 00 00 00 95 14 00 00
  can0       2A8   [8]  E5 0F CF 0F 56 0D 1E 00
  can0       3A8   [6]  00 00 58 02 58 02
  can0       4A8   [8]  26 00 26 00 32 00 32 00
  can0       728   [1]  05
  can0       080   [0] 
  can0       228   [1]  00
  can0       1A8   [8]  09 00 00 00 95 14 00 00
  can0       2A8   [8]  E5 0F CF 0F 56 0D 1E 00
  can0       3A8   [6]  00 00 58 02 58 02
  can0       4A8   [8]  26 00 26 00 32 00 32 00
  can0       080   [0] 
  can0       228   [1]  00
  can0       1A8   [8]  09 00 00 00 95 14 00 00
  can0       2A8   [8]  E5 0F CF 0F 56 0D 1E 00
  can0       3A8   [6]  00 00 58 02 58 02
  can0       4A8   [8]  26 00 26 00 32 00 32 00
  can0  1806E5F4   [8]  02 22 01 F4 01 56 00 00
  can0       080   [0] 
  can0       228   [1]  00
  can0       1A8   [8]  09 00 00 00 95 14 00 00
  can0       2A8   [8]  E5 0F CF 0F 56 0D 1E 00
  can0       3A8   [6]  00 00 58 02 58 02
  can0       4A8   [8]  26 00 26 00 32 00 32 00
  can0       701   [1]  05
  can0       080   [0] 
  can0       228   [1]  00
  can0       1A8   [8]  09 00 00 00 95 14 00 00
  can0       2A8   [8]  E5 0F CF 0F 56 0D 1E 00
  can0       3A8   [6]  00 00 58 02 58 02
  can0       4A8   [8]  26 00 26 00 32 00 32 00
  can0  1806E5F4   [8]  02 22 01 F4 01 56 00 00
  can0       080   [0] 
  can0       228   [1]  00
  can0       1A8   [8]  09 00 00 00 95 14 00 00
  can0       2A8   [8]  E5 0F CF 0F 56 0D 1E 00
  can0       3A8   [6]  00 00 58 02 58 02
  can0       4A8   [8]  26 00 26 00 32 00 32 00
  can0  18FF50E5   [8]  00 00 00 00 08 00 00 00
  can0       728   [1]  05
  can0       080   [0] 
  can0       228   [1]  00
  can0       1A8   [8]  09 00 00 00 95 14 00 00
  can0       2A8   [8]  E5 0F CF 0F 56 0D 1E 00
  can0       3A8   [6]  00 00 58 02 58 02
  can0       4A8   [8]  26 00 26 00 32 00 32 00
  can0       080   [0] 
  can0       228   [1]  00
  can0       1A8   [8]  09 00 00 00 95 14 00 00
  can0       2A8   [8]  E5 0F CF 0F 56 0D 1E 00
  can0       3A8   [6]  00 00 58 02 58 02
  can0       4A8   [8]  26 00 26 00 32 00 32 00
  can0  1806E5F4   [8]  02 22 01 F4 01 56 00 00
  can0       080   [0] 
  can0       228   [1]  00
  can0       1A8   [8]  09 00 00 00 95 14 00 00
  can0       2A8   [8]  E5 0F CF 0F 56 0D 1E 00
  can0       3A8   [6]  00 00 58 02 58 02
  can0       4A8   [8]  26 00 26 00 32 00 32 00
  can0       701   [1]  05
  can0       080   [0] 
  can0       228   [1]  00
  can0       1A8   [8]  09 00 00 00 95 14 00 00
  can0       2A8   [8]  E5 0F CF 0F 56 0D 1E 00
  can0       3A8   [6]  00 00 58 02 58 02
  can0       4A8   [8]  26 00 26 00 32 00 32 00
  can0  1806E5F4   [8]  02 22 01 F4 01 56 00 00
  can0       080   [0] 
  can0       228   [1]  00
  can0       1A8   [8]  09 00 00 00 95 14 00 00
  can0       2A8   [8]  E5 0F CF 0F 56 0D 1E 00
  can0       3A8   [6]  00 00 58 02 58 02
  can0       4A8   [8]  26 00 26 00 32 00 32 00
  can0       728   [1]  05
  can0       080   [0] 
  can0       228   [1]  00
  can0       1A8   [8]  09 00 00 00 95 14 00 00
  can0       2A8   [8]  E5 0F CF 0F 56 0D 1E 00
  can0       3A8   [6]  00 00 58 02 58 02
  can0       4A8   [8]  26 00 26 00 32 00 32 00
  can0       080   [0] 
  can0       228   [1]  00
  can0       1A8   [8]  09 00 00 00 95 14 00 00
  can0       2A8   [8]  E5 0F CF 0F 56 0D 1E 00
  can0       3A8   [6]  00 00 58 02 58 02
  can0       4A8   [8]  26 00 26 00 32 00 32 00
  can0  1806E5F4   [8]  02 22 01 F4 01 56 00 00
  can0       080   [0] 
  can0       228   [1]  00
  can0       1A8   [8]  09 00 00 00 95 14 00 00
  can0       2A8   [8]  E5 0F CF 0F 56 0D 1E 00
  can0       3A8   [6]  00 00 58 02 58 02
  can0       4A8   [8]  26 00 26 00 32 00 32 00
  can0       701   [1]  05
  can0       080   [0] 
  can0       228   [1]  00
  can0       1A8   [8]  09 00 00 00 95 14 00 00
  can0       2A8   [8]  E5 0F CF 0F 56 0D 1E 00
  can0       3A8   [6]  00 00 58 02 58 02
  can0       4A8   [8]  26 00 26 00 32 00 32 00
  can0  1806E5F4   [8]  02 22 01 F4 01 56 00 00
  can0       080   [0] 
  can0       228   [1]  00
  can0       1A8   [8]  09 00 00 00 95 14 00 00
  can0       2A8   [8]  E5 0F CF 0F 56 0D 1E 00
  can0       3A8   [6]  00 00 58 02 58 02
  can0       4A8   [8]  26 00 26 00 32 00 32 00
  can0  18FF50E5   [8]  00 00 00 00 08 00 00 00
  can0       728   [1]  05
  can0       080   [0] 
  can0       228   [1]  00
  can0       1A8   [8]  09 00 00 00 95 14 00 00
  can0       2A8   [8]  E5 0F CF 0F 56 0D 1E 00
  can0       3A8   [6]  00 00 58 02 58 02
  can0       4A8   [8]  26 00 26 00 32 00 32 00
  can0       080   [0] 
  can0       228   [1]  00
  can0       1A8   [8]  09 00 00 00 95 14 00 00
  can0       2A8   [8]  E5 0F CF 0F 56 0D 1E 00
  can0       3A8   [6]  00 00 58 02 58 02
  can0       4A8   [8]  26 00 26 00 32 00 32 00
  can0  1806E5F4   [8]  02 22 01 F4 01 56 00 00
  can0       080   [0] 
  can0       228   [1]  00
  can0       1A8   [8]  09 00 00 00 94 14 00 00
  can0       2A8   [8]  E5 0F CF 0F 56 0D 1E 00
  can0       3A8   [6]  00 00 58 02 58 02
  can0       4A8   [8]  26 00 26 00 32 00 32 00
  can0       701   [1]  05
  can0       080   [0] 
  can0       228   [1]  00
  can0       1A8   [8]  09 00 00 00 94 14 00 00
  can0       2A8   [8]  E5 0F CF 0F 56 0D 1E 00
  can0       3A8   [6]  00 00 58 02 58 02
  can0       4A8   [8]  26 00 26 00 32 00 32 00
  can0  1806E5F4   [8]  02 22 01 F4 01 56 00 00
  can0       080   [0] 
  can0       228   [1]  00
  can0       1A8   [8]  09 00 00 00 94 14 00 00
  can0       2A8   [8]  E5 0F CF 0F 56 0D 1E 00
  can0       3A8   [6]  00 00 58 02 58 02
  can0       4A8   [8]  26 00 26 00 32 00 32 00
  can0       728   [1]  05
  can0       080   [0] 
  can0       228   [1]  00
  can0       1A8   [8]  09 00 00 00 94 14 00 00
  can0       2A8   [8]  E5 0F CF 0F 56 0D 1E 00
  can0       3A8   [6]  00 00 58 02 58 02
  can0       4A8   [8]  26 00 26 00 32 00 32 00
  can0       080   [0] 
  can0       228   [1]  00
  can0       1A8   [8]  09 00 00 00 94 14 00 00
  can0       2A8   [8]  E5 0F CF 0F 56 0D 1E 00
  can0       3A8   [6]  00 00 58 02 58 02
  can0       4A8   [8]  26 00 26 00 32 00 32 00
  can0  1806E5F4   [8]  02 22 01 F4 01 56 00 00
  can0       080   [0] 
  can0       228   [1]  00
  can0       1A8   [8]  09 00 00 00 94 14 00 00
  can0       2A8   [8]  E5 0F CF 0F 56 0D 1E 00
  can0       3A8   [6]  00 00 58 02 58 02
  can0       4A8   [8]  26 00 26 00 32 00 32 00
  can0       701   [1]  05
  can0       080   [0] 
  can0       228   [1]  00
  can0       1A8   [8]  09 00 00 00 94 14 00 00
  can0       2A8   [8]  E5 0F CF 0F 56 0D 1E 00
  can0       3A8   [6]  00 00 58 02 58 02
  can0       4A8   [8]  26 00 26 00 32 00 32 00
  can0  1806E5F4   [8]  02 22 01 F4 01 56 00 00
  can0       080   [0] 
  can0       228   [1]  00
  can0       1A8   [8]  09 00 00 00 94 14 00 00
  can0       2A8   [8]  E5 0F CF 0F 56 0D 1E 00
  can0       3A8   [6]  00 00 58 02 58 02
  can0       4A8   [8]  26 00 26 00 32 00 32 00
  can0  18FF50E5   [8]  00 00 00 00 08 00 00 00
  can0       728   [1]  05
  can0       080   [0] 
  can0       228   [1]  00
  can0       1A8   [8]  09 00 00 00 94 14 00 00
  can0       2A8   [8]  E5 0F CF 0F 56 0D 1E 00
  can0       3A8   [6]  00 00 58 02 58 02
  can0       4A8   [8]  26 00 26 00 32 00 32 00
  can0       080   [0] 
  can0       228   [1]  00
  can0       1A8   [8]  09 00 00 00 94 14 00 00
  can0       2A8   [8]  E5 0F CF 0F 56 0D 1E 00
  can0       3A8   [6]  00 00 58 02 58 02
  can0       4A8   [8]  26 00 26 00 32 00 32 00
  can0  1806E5F4   [8]  02 22 01 F4 01 56 00 00
  can0       080   [0] 
  can0       228   [1]  00
  can0       1A8   [8]  09 00 00 00 94 14 00 00
  can0       2A8   [8]  E5 0F CF 0F 56 0D 1E 00
  can0       3A8   [6]  00 00 58 02 58 02
  can0       4A8   [8]  26 00 26 00 32 00 32 00
  can0       701   [1]  05
  can0       080   [0] 
  can0       228   [1]  00
  can0       1A8   [8]  09 00 00 00 94 14 00 00
  can0       2A8   [8]  E5 0F CF 0F 56 0D 1E 00
  can0       3A8   [6]  00 00 58 02 58 02
  can0       4A8   [8]  26 00 26 00 32 00 32 00
  can0       080   [0] 
  can0       228   [1]  00
  can0       1A8   [8]  09 00 00 00 94 14 00 00
  can0       2A8   [8]  E5 0F CF 0F 56 0D 1E 00
  can0       3A8   [6]  00 00 58 02 58 02
  can0       4A8   [8]  26 00 26 00 32 00 32 00
  can0  1806E5F4   [8]  02 22 01 F4 01 56 00 00
  can0       728   [1]  05
  can0       080   [0] 
  can0       228   [1]  00
  can0       1A8   [8]  49 00 00 00 94 14 00 00
  can0       2A8   [8]  E5 0F CF 0F 56 0D 1E 00
  can0       3A8   [6]  00 00 58 02 58 02
  can0       4A8   [8]  26 00 26 00 32 00 32 00
  can0       080   [0] 
  can0       228   [1]  00
  can0       1A8   [8]  49 00 00 00 94 14 00 00
  can0       2A8   [8]  E5 0F CF 0F 56 0D 1E 00
  can0       3A8   [6]  00 00 58 02 58 02
  can0       4A8   [8]  26 00 26 00 32 00 32 00
  can0  1806E5F4   [8]  02 22 01 F4 01 56 00 00
  can0       080   [0] 
  can0       228   [1]  00
  can0       1A8   [8]  49 00 00 00 94 14 00 00
  can0       2A8   [8]  E5 0F CF 0F 56 0D 1E 00
  can0       3A8   [6]  00 00 58 02 58 02
  can0       4A8   [8]  26 00 26 00 32 00 32 00
  can0       701   [1]  05
  can0       080   [0] 
  can0       228   [1]  00
  can0       1A8   [8]  49 00 00 00 94 14 00 00
  can0       2A8   [8]  E5 0F CF 0F 56 0D 1E 00
  can0       3A8   [6]  00 00 58 02 58 02
  can0       4A8   [8]  26 00 26 00 32 00 32 00
  can0       080   [0] 
  can0       228   [1]  00
  can0       1A8   [8]  49 00 00 00 94 14 00 00
  can0       2A8   [8]  E5 0F CF 0F 56 0D 1E 00
  can0       3A8   [6]  00 00 58 02 58 02
  can0       4A8   [8]  26 00 26 00 32 00 32 00
  can0  18FF50E5   [8]  00 00 00 00 08 00 00 00
  can0  1806E5F4   [8]  02 22 01 F4 01 56 00 00
  can0       728   [1]  05
  can0       080   [0] 
  can0       228   [1]  00
  can0       1A8   [8]  49 00 00 00 94 14 00 00
  can0       2A8   [8]  E5 0F CF 0F 56 0D 1E 00
  can0       3A8   [6]  00 00 58 02 58 02
  can0       4A8   [8]  26 00 26 00 32 00 32 00
  can0       080   [0] 
  can0       228   [1]  00
  can0       1A8   [8]  49 00 00 00 94 14 00 00
  can0       2A8   [8]  E5 0F CF 0F 56 0D 1E 00
  can0       3A8   [6]  00 00 58 02 58 02
  can0       4A8   [8]  26 00 26 00 32 00 32 00
  can0  1806E5F4   [8]  02 22 01 F4 01 56 00 00
  can0       080   [0] 
  can0       228   [1]  00
  can0       1A8   [8]  49 00 00 00 94 14 00 00
  can0       2A8   [8]  E5 0F CF 0F 56 0D 1E 00
  can0       3A8   [6]  00 00 58 02 58 02
  can0       4A8   [8]  26 00 26 00 32 00 32 00
  can0       701   [1]  05
  can0       080   [0] 
  can0       228   [1]  00
  can0       1A8   [8]  49 00 00 00 94 14 00 00
  can0       2A8   [8]  E5 0F CF 0F 56 0D 1E 00
  can0       3A8   [6]  00 00 58 02 58 02
  can0       4A8   [8]  26 00 26 00 32 00 32 00
  can0       080   [0] 
  can0       228   [1]  00
  can0       1A8   [8]  49 00 00 00 94 14 00 00
  can0       2A8   [8]  E5 0F CF 0F 56 0D 1E 00
  can0       3A8   [6]  00 00 58 02 58 02
  can0       4A8   [8]  26 00 26 00 32 00 32 00
  can0  1806E5F4   [8]  02 22 01 F4 01 56 00 00
  can0       728   [1]  05
  can0       080   [0] 
  can0       228   [1]  00
  can0       1A8   [8]  49 00 00 00 94 14 00 00
  can0       2A8   [8]  E5 0F CF 0F 56 0D 1E 00
  can0       3A8   [6]  00 00 58 02 58 02
  can0       4A8   [8]  26 00 26 00 32 00 32 00
  can0       080   [0] 
  can0       228   [1]  00
  can0       1A8   [8]  49 00 00 00 94 14 00 00
  can0       2A8   [8]  E5 0F CF 0F 56 0D 1E 00
  can0       3A8   [6]  00 00 58 02 58 02
  can0       4A8   [8]  26 00 26 00 32 00 32 00
  can0       080   [0] 
  can0       228   [1]  00
  can0       1A8   [8]  49 00 00 00 94 14 00 00
  can0       2A8   [8]  E5 0F CF 0F 56 0D 1E 00
  can0       3A8   [6]  00 00 58 02 58 02
  can0       4A8   [8]  26 00 26 00 32 00 32 00
  can0  1806E5F4   [8]  02 22 01 F4 01 56 00 00
  can0       701   [1]  05
  can0       080   [0] 
  can0       228   [1]  00
  can0       1A8   [8]  49 00 00 00 94 14 00 00
  can0       2A8   [8]  E4 0F CF 0F 56 0D 1E 00
  can0       3A8   [6]  00 00 58 02 58 02
  can0       4A8   [8]  26 00 26 00 32 00 32 00
  can0       080   [0] 
  can0       228   [1]  00
  can0       1A8   [8]  49 00 00 00 94 14 00 00
  can0       2A8   [8]  E4 0F CF 0F 56 0D 1E 00
  can0       3A8   [6]  00 00 58 02 58 02
  can0       4A8   [8]  26 00 26 00 32 00 32 00
  can0  18FF50E5   [8]  00 00 00 00 08 00 00 00
  can0  1806E5F4   [8]  02 22 01 F4 01 56 00 00
  can0       728   [1]  05
  can0       080   [0] 
  can0       228   [1]  00
  can0       1A8   [8]  49 00 00 00 94 14 00 00
  can0       2A8   [8]  E4 0F CF 0F 56 0D 1E 00
  can0       3A8   [6]  00 00 58 02 58 02
  can0       4A8   [8]  26 00 26 00 32 00 32 00
  can0       080   [0] 
  can0       228   [1]  00
  can0       1A8   [8]  49 00 00 00 94 14 00 00
  can0       2A8   [8]  E4 0F CF 0F 56 0D 1E 00
  can0       3A8   [6]  00 00 58 02 58 02
  can0       4A8   [8]  26 00 26 00 32 00 32 00
  can0       080   [0] 
  can0       228   [1]  00
  can0       1A8   [8]  49 00 00 00 94 14 00 00
  can0       2A8   [8]  E4 0F CF 0F 56 0D 1E 00
  can0       3A8   [6]  00 00 58 02 58 02
  can0       4A8   [8]  26 00 26 00 32 00 32 00
  can0  1806E5F4   [8]  02 22 01 F4 01 56 00 00
  can0       701   [1]  05
  can0       080   [0] 
  can0       228   [1]  00
  can0       1A8   [8]  49 00 00 00 94 14 00 00
  can0       2A8   [8]  E4 0F CF 0F 56 0D 1E 00
  can0       3A8   [6]  00 00 58 02 58 02
  can0       4A8   [8]  26 00 26 00 32 00 32 00
  can0       080   [0] 
  can0       228   [1]  00
  can0       1A8   [8]  49 00 00 00 94 14 00 00
  can0       2A8   [8]  E4 0F CF 0F 56 0D 1E 00
  can0       3A8   [6]  00 00 58 02 58 02
  can0       4A8   [8]  26 00 26 00 32 00 32 00
  can0  1806E5F4   [8]  02 22 01 F4 01 56 00 00
  can0       728   [1]  05
  can0       080   [0] 
  can0       228   [1]  00
  can0       1A8   [8]  49 00 00 00 94 14 00 00
  can0       2A8   [8]  E4 0F CF 0F 56 0D 1E 00
  can0       3A8   [6]  00 00 58 02 58 02
  can0       4A8   [8]  26 00 26 00 32 00 32 00
  can0       080   [0] 
  can0       228   [1]  00
  can0       1A8   [8]  49 00 00 00 94 14 00 00
  can0       2A8   [8]  E4 0F CF 0F 56 0D 1E 00
  can0       3A8   [6]  00 00 58 02 58 02
  can0       4A8   [8]  26 00 26 00 32 00 32 00
  can0       080   [0] 
  can0       228   [1]  00
  can0       1A8   [8]  49 00 00 00 94 14 00 00
  can0       2A8   [8]  E4 0F CF 0F 56 0D 1E 00
  can0       3A8   [6]  00 00 58 02 58 02
  can0       4A8   [8]  26 00 26 00 32 00 32 00
  can0  1806E5F4   [8]  02 22 01 F4 01 56 00 00
  can0       701   [1]  05
  can0       080   [0] 
  can0       228   [1]  00
  can0       1A8   [8]  49 00 00 00 94 14 00 00
  can0       2A8   [8]  E4 0F CF 0F 56 0D 1E 00
  can0       3A8   [6]  00 00 58 02 58 02
  can0       4A8   [8]  26 00 26 00 32 00 32 00
  can0       080   [0] 
  can0       228   [1]  00
  can0       1A8   [8]  49 00 00 00 94 14 00 00
  can0       2A8   [8]  E4 0F CF 0F 56 0D 1E 00
  can0       3A8   [6]  00 00 58 02 58 02
  can0       4A8   [8]  26 00 26 00 32 00 32 00
  can0  18FF50E5   [8]  00 00 00 00 08 00 00 00
  can0       728   [1]  05
  can0  1806E5F4   [8]  02 22 01 F4 01 56 00 00
  can0       080   [0] 
  can0       228   [1]  00
  can0       1A8   [8]  49 00 00 00 94 14 00 00
  can0       2A8   [8]  E4 0F CF 0F 56 0D 1E 00
  can0       3A8   [6]  00 00 58 02 58 02
  can0       4A8   [8]  26 00 26 00 32 00 32 00
  can0       080   [0] 
  can0       228   [1]  00
  can0       1A8   [8]  49 00 00 00 94 14 00 00
  can0       2A8   [8]  E4 0F CF 0F 56 0D 1E 00
  can0       3A8   [6]  00 00 58 02 58 02
  can0       4A8   [8]  26 00 26 00 32 00 32 00
  can0       080   [0] 
  can0       228   [1]  00
  can0       1A8   [8]  49 00 00 00 94 14 00 00
  can0       2A8   [8]  E4 0F CF 0F 56 0D 1E 00
  can0       3A8   [6]  00 00 58 02 58 02
  can0       4A8   [8]  26 00 26 00 32 00 32 00
  can0  1806E5F4   [8]  02 22 01 F4 01 56 00 00
  can0       701   [1]  05
  can0       080   [0] 
  can0       228   [1]  00
  can0       1A8   [8]  49 00 00 00 94 14 00 00
  can0       2A8   [8]  E4 0F CF 0F 56 0D 1E 00
  can0       3A8   [6]  00 00 58 02 58 02
  can0       4A8   [8]  26 00 26 00 32 00 32 00
  can0       080   [0] 
  can0       228   [1]  00
  can0       1A8   [8]  49 00 00 00 94 14 00 00
  can0       2A8   [8]  E4 0F CF 0F 56 0D 1E 00
  can0       3A8   [6]  00 00 58 02 58 02
  can0       4A8   [8]  26 00 26 00 32 00 32 00
  can0       728   [1]  05
  can0       080   [0] 
  can0       228   [1]  00
  can0       1A8   [8]  49 00 00 00 94 14 00 00
  can0       2A8   [8]  E4 0F CF 0F 56 0D 1E 00
  can0       3A8   [6]  00 00 58 02 58 02
  can0       4A8   [8]  26 00 26 00 32 00 32 00
  can0  1806E5F4   [8]  02 22 01 F4 01 56 00 00
  can0       080   [0] 
  can0       228   [1]  00
  can0       1A8   [8]  49 00 00 00 94 14 00 00
  can0       2A8   [8]  E4 0F CF 0F 56 0D 1E 00
  can0       3A8   [6]  00 00 58 02 58 02
  can0       4A8   [8]  26 00 26 00 32 00 32 00
  can0       080   [0] 
  can0       228   [1]  00
  can0       1A8   [8]  49 00 00 00 94 14 00 00
  can0       2A8   [8]  E4 0F CF 0F 56 0D 1E 00
  can0       3A8   [6]  00 00 58 02 58 02
  can0       4A8   [8]  26 00 26 00 32 00 32 00
  can0  1806E5F4   [8]  02 22 01 F4 01 56 00 00
  can0       701   [1]  05
  can0       080   [0] 
  can0       228   [1]  00
  can0       1A8   [8]  49 00 00 00 94 14 00 00
  can0       2A8   [8]  E4 0F CF 0F 56 0D 1E 00
  can0       3A8   [6]  00 00 58 02 58 02
  can0       4A8   [8]  26 00 26 00 32 00 32 00
  can0       080   [0] 
  can0       228   [1]  00
  can0       1A8   [8]  49 00 00 00 94 14 00 00
  can0       2A8   [8]  E4 0F CF 0F 56 0D 1E 00
  can0       3A8   [6]  00 00 58 02 58 02
  can0       4A8   [8]  26 00 26 00 32 00 32 00
  can0  18FF50E5   [8]  00 00 00 00 08 00 00 00
  can0       728   [1]  05
  can0       080   [0] 
  can0       228   [1]  00
  can0       1A8   [8]  49 00 00 00 94 14 00 00
  can0       2A8   [8]  E4 0F CF 0F 56 0D 1E 00
  can0       3A8   [6]  00 00 58 02 58 02
  can0       4A8   [8]  26 00 26 00 32 00 32 00
  can0  1806E5F4   [8]  02 22 01 F4 01 56 00 00
