  can0  1806E5F4   [8]  00 00 00 00 01 01 00 00
  can0  1806E5F4   [8]  00 00 00 00 01 01 00 00
  can0  18FF50E5   [8]  00 00 00 00 08 00 00 00
  can0  1806E5F4   [8]  00 00 00 00 01 01 00 00
  can0  1806E5F4   [8]  02 22 00 00 01 64 00 00
  can0  1806E5F4   [8]  02 22 00 00 01 64 00 00
  can0  1806E5F4   [8]  02 22 00 00 01 64 00 00
  can0  18FF50E5   [8]  00 00 00 00 08 00 00 00
  can0  1806E5F4   [8]  02 22 00 00 01 64 00 00
  can0  1806E5F4   [8]  02 22 00 00 01 64 00 00
  can0  1806E5F4   [8]  02 22 00 00 01 64 00 00
  can0  1806E5F4   [8]  02 22 00 00 01 64 00 00
  can0  18FF50E5   [8]  00 00 00 00 08 00 00 00
  can0  1806E5F4   [8]  02 22 00 00 01 64 00 00
  can0  1806E5F4   [8]  02 22 00 00 01 64 00 00
  can0  1806E5F4   [8]  02 22 00 00 01 64 00 00
  can0  1806E5F4   [8]  02 22 00 00 01 64 00 00
  can0  18FF50E5   [8]  00 00 00 00 08 00 00 00
  can0  1806E5F4   [8]  02 22 00 00 01 64 00 00
  can0  1806E5F4   [8]  02 22 00 00 01 64 00 00
  can0  1806E5F4   [8]  02 22 00 00 01 64 00 00
  can0  1806E5F4   [8]  02 22 01 F4 01 64 00 00
  can0  18FF50E5   [8]  00 00 00 00 08 00 00 00
  can0  1806E5F4   [8]  02 22 01 F4 01 64 00 00
  can0  1806E5F4   [8]  02 22 01 F4 01 64 00 00
  can0  1806E5F4   [8]  02 22 01 F4 01 64 00 00
  can0  1806E5F4   [8]  02 22 01 F4 01 64 00 00
  can0  18FF50E5   [8]  02 07 00 00 00 00 00 00
  can0  1806E5F4   [8]  02 22 01 F4 00 64 00 00
  can0  1806E5F4   [8]  02 22 01 F4 00 64 00 00
  can0  1806E5F4   [8]  02 22 01 F4 00 64 00 00
  can0  1806E5F4   [8]  02 22 01 F4 00 64 00 00
  can0  18FF50E5   [8]  02 16 00 00 00 00 00 00
  can0  1806E5F4   [8]  02 22 01 F4 00 64 00 00
  can0  1806E5F4   [8]  02 22 01 F4 00 64 00 00
  can0  1806E5F4   [8]  02 22 01 F4 00 64 00 00
  can0  1806E5F4   [8]  02 22 01 F4 00 64 00 00
  can0  18FF50E5   [8]  02 17 00 00 00 00 00 00
  can0  1806E5F4   [8]  02 22 01 F4 00 64 00 00
  can0  1806E5F4   [8]  02 22 01 F4 00 64 00 00
  can0  1806E5F4   [8]  02 22 01 F4 00 64 00 00
  can0  18FF50E5   [8]  02 17 00 00 00 00 00 00
  can0  1806E5F4   [8]  02 22 01 F4 00 64 00 00
  can0  1806E5F4   [8]  02 22 01 F4 00 64 00 00
  can0  1806E5F4   [8]  02 22 01 F4 00 64 00 00
  can0  1806E5F4   [8]  02 22 01 F4 00 64 00 00
  can0  18FF50E5   [8]  02 16 00 00 00 00 00 00
  can0  1806E5F4   [8]  02 22 01 F4 00 64 00 00
  can0  1806E5F4   [8]  02 22 01 F4 00 64 00 00
  can0  1806E5F4   [8]  02 22 01 F4 00 64 00 00
  can0  1806E5F4   [8]  02 22 01 F4 00 64 00 00
  can0  18FF50E5   [8]  02 21 00 BE 00 00 00 00
  can0  1806E5F4   [8]  02 22 01 F4 00 64 00 00
  can0  1806E5F4   [8]  02 22 01 F4 00 64 00 00
  can0  1806E5F4   [8]  02 22 01 F4 00 64 00 00
  can0  1806E5F4   [8]  02 22 01 F4 00 64 00 00
  can0  18FF50E5   [8]  02 22 00 C0 00 00 00 00
  can0  1806E5F4   [8]  02 22 01 F4 00 64 00 00
  can0  1806E5F4   [8]  02 22 01 F4 00 64 00 00
  can0  1806E5F4   [8]  02 22 01 F4 00 64 00 00
  can0  1806E5F4   [8]  02 22 01 F4 00 64 00 00
  can0  18FF50E5   [8]  02 22 00 BD 00 00 00 00
  can0  1806E5F4   [8]  02 22 01 F4 00 64 00 00
  can0  1806E5F4   [8]  02 22 01 F4 00 64 00 00
  can0  1806E5F4   [8]  02 22 01 F4 00 64 00 00
  can0  1806E5F4   [8]  02 22 01 F4 00 64 00 00
  can0  18FF50E5   [8]  02 22 00 BB 00 00 00 00
  can0  1806E5F4   [8]  02 22 01 F4 00 64 00 00
  can0  1806E5F4   [8]  02 22 01 F4 00 64 00 00
  can0  1806E5F4   [8]  02 22 01 F4 00 64 00 00
  can0  1806E5F4   [8]  02 22 01 F4 00 64 00 00
  can0  18FF50E5   [8]  02 22 00 B9 00 00 00 00
  can0  1806E5F4   [8]  02 22 01 F4 00 64 00 00
  can0  1806E5F4   [8]  02 22 01 F4 00 64 00 00
  can0  1806E5F4   [8]  02 22 01 F4 00 64 00 00
  can0  1806E5F4   [8]  02 22 01 F4 00 64 00 00
  can0  18FF50E5   [8]  02 22 00 B8 00 00 00 00
  can0  1806E5F4   [8]  02 22 01 F4 00 64 00 00
  can0  1806E5F4   [8]  02 22 01 F4 00 64 00 00
  can0  1806E5F4   [8]  02 22 01 F4 00 64 00 00
  can0  1806E5F4   [8]  02 22 01 F4 00 64 00 00
  can0  18FF50E5   [8]  02 22 00 B6 00 00 00 00
  can0  1806E5F4   [8]  02 22 01 F4 00 64 00 00
  can0  1806E5F4   [8]  02 22 01 F4 00 64 00 00
  can0  1806E5F4   [8]  02 22 01 F4 00 64 00 00
  can0  18FF50E5   [8]  02 22 00 B5 00 00 00 00
  can0  1806E5F4   [8]  02 22 01 F4 00 64 00 00
  can0  1806E5F4   [8]  02 22 01 F4 00 64 00 00
  can0  1806E5F4   [8]  02 22 01 F4 00 64 00 00
  can0  1806E5F4   [8]  02 22 01 F4 00 64 00 00
  can0  18FF50E5   [8]  02 22 00 B4 00 00 00 00
  can0  1806E5F4   [8]  02 22 01 F4 01 64 00 00
  can0  1806E5F4   [8]  02 22 01 F4 01 64 00 00
  can0  1806E5F4   [8]  02 22 01 F4 01 64 00 00
  can0  1806E5F4   [8]  02 22 01 F4 01 64 00 00
  can0  18FF50E5   [8]  02 12 00 00 00 00 00 00
  can0  1806E5F4   [8]  02 22 01 F4 01 64 00 00
  can0  1806E5F4   [8]  02 22 01 F4 01 64 00 00
  can0  1806E5F4   [8]  02 22 01 F4 01 64 00 00
  can0  1806E5F4   [8]  02 22 01 F4 01 64 00 00
  can0  18FF50E5   [8]  02 0A 00 00 00 00 00 00
  can0  1806E5F4   [8]  02 22 01 F4 01 64 00 00
  can0  1806E5F4   [8]  02 22 01 F4 01 64 00 00
  can0  1806E5F4   [8]  02 22 01 F4 01 64 00 00
  can0  1806E5F4   [8]  02 22 01 F4 01 64 00 00
  can0  18FF50E5   [8]  02 0A 00 00 00 00 00 00
  can0  1806E5F4   [8]  02 22 01 F4 01 64 00 00
  can0  1806E5F4   [8]  02 22 01 F4 01 64 00 00
  can0  1806E5F4   [8]  02 22 01 F4 01 64 00 00
  can0  1806E5F4   [8]  02 22 01 F4 01 64 00 00
  can0  18FF50E5   [8]  01 D9 00 00 00 00 00 00
  can0  1806E5F4   [8]  02 22 01 F4 01 64 00 00
  can0  1806E5F4   [8]  02 22 01 F4 01 64 00 00
  can0  1806E5F4   [8]  02 22 01 F4 01 64 00 00
  can0  1806E5F4   [8]  02 22 01 F4 01 64 00 00
  can0  18FF50E5   [8]  01 8F 00 00 00 00 00 00
  can0  1806E5F4   [8]  02 22 01 F4 01 64 00 00
  can0  1806E5F4   [8]  02 22 01 F4 01 64 00 00
  can0  1806E5F4   [8]  02 22 01 F4 01 64 00 00
  can0  1806E5F4   [8]  02 22 01 F4 01 64 00 00
  can0  18FF50E5   [8]  01 52 00 00 00 00 00 00
  can0  1806E5F4   [8]  02 22 01 F4 01 64 00 00
  can0  1806E5F4   [8]  02 22 01 F4 01 64 00 00
  can0  1806E5F4   [8]  02 22 01 F4 01 64 00 00
  can0  1806E5F4   [8]  02 22 01 F4 01 64 00 00
  can0  18FF50E5   [8]  01 1E 00 00 00 00 00 00
  can0  1806E5F4   [8]  02 22 01 F4 01 64 00 00
  can0  1806E5F4   [8]  02 22 01 F4 01 64 00 00
  can0  1806E5F4   [8]  02 22 01 F4 01 64 00 00
  can0  18FF50E5   [8]  00 F2 00 00 00 00 00 00
  can0  1806E5F4   [8]  02 22 01 F4 01 64 00 00
  can0  1806E5F4   [8]  02 22 01 F4 01 64 00 00
  can0  1806E5F4   [8]  02 22 01 F4 01 64 00 00
  can0  1806E5F4   [8]  02 22 01 F4 01 64 00 00
  can0  18FF50E5   [8]  00 D1 00 00 00 00 00 00
  can0  1806E5F4   [8]  02 22 01 F4 01 64 00 00
  can0  1806E5F4   [8]  02 22 01 F4 01 64 00 00
  can0  1806E5F4   [8]  02 22 01 F4 01 64 00 00
  can0  1806E5F4   [8]  02 22 01 F4 01 64 00 00
  can0  18FF50E5   [8]  00 B1 00 00 00 00 00 00
  can0  1806E5F4   [8]  02 22 01 F4 01 64 00 00
  can0  1806E5F4   [8]  02 22 01 F4 01 64 00 00
  can0  1806E5F4   [8]  02 22 01 F4 01 64 00 00
  can0  1806E5F4   [8]  02 22 01 F4 01 64 00 00
  can0  18FF50E5   [8]  00 96 00 00 08 00 00 00
  can0  1806E5F4   [8]  02 22 01 F4 01 64 00 00
  can0  1806E5F4   [8]  02 22 01 F4 01 64 00 00
  can0  1806E5F4   [8]  02 22 01 F4 01 64 00 00
  can0  1806E5F4   [8]  02 22 01 F4 01 64 00 00
  can0  18FF50E5   [8]  00 7F 00 00 08 00 00 00
  can0  1806E5F4   [8]  02 22 01 F4 01 64 00 00
  can0  1806E5F4   [8]  02 22 01 F4 01 64 00 00
  can0  1806E5F4   [8]  02 22 01 F4 01 64 00 00
  can0  1806E5F4   [8]  02 22 01 F4 01 64 00 00
  can0  18FF50E5   [8]  00 6C 00 00 08 00 00 00
  can0  1806E5F4   [8]  02 22 01 F4 01 64 00 00
  can0  1806E5F4   [8]  02 22 01 F4 01 64 00 00
  can0  1806E5F4   [8]  02 22 01 F4 01 64 00 00
  can0  1806E5F4   [8]  02 22 01 F4 01 64 00 00
  can0  18FF50E5   [8]  00 5C 00 00 08 00 00 00
  can0  1806E5F4   [8]  02 22 01 F4 01 64 00 00
  can0  1806E5F4   [8]  02 22 01 F4 01 64 00 00
  can0  1806E5F4   [8]  02 22 01 F4 01 64 00 00
  can0  1806E5F4   [8]  02 22 01 F4 01 64 00 00
  can0  18FF50E5   [8]  00 4F 00 00 08 00 00 00
  can0  1806E5F4   [8]  02 22 01 F4 01 64 00 00
  can0  1806E5F4   [8]  02 22 01 F4 01 64 00 00
  can0  1806E5F4   [8]  02 22 01 F4 01 64 00 00
  can0  1806E5F4   [8]  02 22 01 F4 01 64 00 00
  can0  18FF50E5   [8]  00 43 00 00 08 00 00 00
  can0  1806E5F4   [8]  02 22 01 F4 01 64 00 00
  can0  1806E5F4   [8]  02 22 01 F4 01 64 00 00
  can0  1806E5F4   [8]  02 22 01 F4 01 64 00 00
  can0  1806E5F4   [8]  02 22 01 F4 01 64 00 00
  can0  18FF50E5   [8]  00 39 00 00 08 00 00 00
  can0  1806E5F4   [8]  02 22 01 F4 01 64 00 00
  can0  1806E5F4   [8]  02 22 01 F4 01 64 00 00
  can0  1806E5F4   [8]  02 22 01 F4 01 64 00 00
  can0  18FF50E5   [8]  00 31 00 00 08 00 00 00
  can0  1806E5F4   [8]  02 22 01 F4 01 64 00 00
  can0  1806E5F4   [8]  02 22 01 F4 01 64 00 00
  can0  1806E5F4   [8]  02 22 01 F4 01 64 00 00
  can0  1806E5F4   [8]  02 22 01 F4 01 64 00 00
  can0  18FF50E5   [8]  00 2A 00 00 08 00 00 00
  can0  1806E5F4   [8]  02 22 01 F4 01 64 00 00
  can0  1806E5F4   [8]  02 22 01 F4 01 64 00 00
  can0  1806E5F4   [8]  02 22 01 F4 01 64 00 00
  can0  1806E5F4   [8]  02 22 01 F4 01 64 00 00
  can0  18FF50E5   [8]  00 24 00 00 08 00 00 00
  can0  1806E5F4   [8]  02 22 01 F4 01 64 00 00
  can0  1806E5F4   [8]  02 22 01 F4 01 64 00 00
  can0  1806E5F4   [8]  02 22 01 F4 01 64 00 00
  can0  1806E5F4   [8]  02 22 01 F4 01 64 00 00
  can0  18FF50E5   [8]  00 1E 00 00 08 00 00 00
  can0  1806E5F4   [8]  02 22 01 F4 01 64 00 00
  can0  1806E5F4   [8]  02 22 01 F4 01 64 00 00
  can0  1806E5F4   [8]  02 22 01 F4 01 64 00 00
  can0  1806E5F4   [8]  02 22 01 F4 01 64 00 00
  can0  18FF50E5   [8]  00 1A 00 00 08 00 00 00
  can0  1806E5F4   [8]  02 22 01 F4 01 64 00 00
  can0  1806E5F4   [8]  02 22 01 F4 01 64 00 00
  can0  1806E5F4   [8]  02 22 01 F4 01 64 00 00
  can0  1806E5F4   [8]  02 22 01 F4 01 64 00 00
  can0  18FF50E5   [8]  00 00 00 00 08 00 00 00
  can0  1806E5F4   [8]  02 22 01 F4 01 64 00 00
  can0  1806E5F4   [8]  02 22 01 F4 01 64 00 00
  can0  1806E5F4   [8]  02 22 01 F4 01 64 00 00
  can0  1806E5F4   [8]  02 22 01 F4 01 64 00 00
  can0  18FF50E5   [8]  00 00 00 00 08 00 00 00
  can0  1806E5F4   [8]  02 22 01 F4 01 64 00 00
  can0  1806E5F4   [8]  02 22 01 F4 01 64 00 00
  can0  1806E5F4   [8]  02 22 01 F4 01 64 00 00
  can0  1806E5F4   [8]  02 22 01 F4 01 64 00 00
  can0  18FF50E5   [8]  00 00 00 00 08 00 00 00
  can0  1806E5F4   [8]  02 22 01 F4 01 64 00 00
  can0  1806E5F4   [8]  02 22 01 F4 01 64 00 00
  can0  1806E5F4   [8]  02 22 01 F4 01 64 00 00
  can0  1806E5F4   [8]  02 22 01 F4 01 64 00 00
  can0  18FF50E5   [8]  00 00 00 00 08 00 00 00
  can0  1806E5F4   [8]  02 22 01 F4 01 64 00 00
  can0  1806E5F4   [8]  02 22 01 F4 01 64 00 00
  can0  1806E5F4   [8]  02 22 01 F4 01 64 00 00
  can0  1806E5F4   [8]  02 22 01 F4 01 64 00 00
  can0  18FF50E5   [8]  00 00 00 00 08 00 00 00
  can0  1806E5F4   [8]  02 22 01 F4 01 64 00 00
  can0  1806E5F4   [8]  02 22 01 F4 01 64 00 00
  can0  1806E5F4   [8]  02 22 01 F4 01 64 00 00
  can0  1806E5F4   [8]  02 22 01 F4 01 64 00 00
  can0  18FF50E5   [8]  00 00 00 00 08 00 00 00
  can0  1806E5F4   [8]  02 22 01 F4 01 64 00 00
  can0  1806E5F4   [8]  02 22 01 F4 01 64 00 00
  can0  1806E5F4   [8]  02 22 01 F4 01 64 00 00
  can0  18FF50E5   [8]  00 00 00 00 08 00 00 00
  can0  1806E5F4   [8]  02 22 01 F4 01 64 00 00
  can0  1806E5F4   [8]  02 22 01 F4 01 64 00 00
  can0  1806E5F4   [8]  02 22 01 F4 01 64 00 00
  can0  1806E5F4   [8]  02 22 01 F4 01 64 00 00
  can0  18FF50E5   [8]  00 00 00 00 08 00 00 00
  can0  1806E5F4   [8]  02 22 01 F4 01 64 00 00
  can0  1806E5F4   [8]  02 22 01 F4 01 64 00 00
  can0  1806E5F4   [8]  02 22 01 F4 01 64 00 00
  can0  1806E5F4   [8]  02 22 01 F4 01 64 00 00
  can0  18FF50E5   [8]  00 00 00 00 08 00 00 00
  can0  1806E5F4   [8]  02 22 01 F4 01 64 00 00
  can0  1806E5F4   [8]  02 22 01 F4 01 64 00 00
  can0  1806E5F4   [8]  02 22 01 F4 01 64 00 00
  can0  1806E5F4   [8]  02 22 01 F4 01 64 00 00
  can0  18FF50E5   [8]  00 00 00 00 08 00 00 00
  can0  1806E5F4   [8]  02 22 01 F4 01 64 00 00
  can0  1806E5F4   [8]  02 22 01 F4 01 64 00 00
  can0  1806E5F4   [8]  02 22 01 F4 01 64 00 00
  can0  1806E5F4   [8]  02 22 01 F4 01 64 00 00
  can0  18FF50E5   [8]  00 00 00 00 08 00 00 00
  can0  1806E5F4   [8]  02 22 01 F4 01 64 00 00
  can0  1806E5F4   [8]  02 22 01 F4 01 64 00 00
  can0  1806E5F4   [8]  02 22 01 F4 01 64 00 00
  can0  1806E5F4   [8]  02 22 01 F4 01 64 00 00
  can0  18FF50E5   [8]  00 00 00 00 08 00 00 00
  can0  1806E5F4   [8]  02 22 01 F4 01 64 00 00
  can0  1806E5F4   [8]  02 22 01 F4 01 64 00 00
  can0  1806E5F4   [8]  02 22 01 F4 01 64 00 00
  can0  1806E5F4   [8]  02 22 01 F4 01 64 00 00
  can0  18FF50E5   [8]  00 00 00 00 08 00 00 00
  can0  1806E5F4   [8]  02 22 01 F4 01 64 00 00
  can0  1806E5F4   [8]  02 22 01 F4 01 64 00 00
  can0  1806E5F4   [8]  02 22 01 F4 01 64 00 00
  can0  1806E5F4   [8]  02 22 01 F4 01 64 00 00
  can0  18FF50E5   [8]  00 00 00 00 08 00 00 00
  can0  1806E5F4   [8]  02 22 01 F4 01 64 00 00
  can0  1806E5F4   [8]  02 22 01 F4 01 64 00 00
  can0  1806E5F4   [8]  02 22 01 F4 01 64 00 00
  can0  18FF50E5   [8]  00 00 00 00 08 00 00 00
  can0  1806E5F4   [8]  02 22 01 F4 01 64 00 00
  can0  1806E5F4   [8]  02 22 01 F4 01 64 00 00
  can0  1806E5F4   [8]  02 22 01 F4 01 64 00 00
  can0  1806E5F4   [8]  02 22 01 F4 01 64 00 00
  can0  18FF50E5   [8]  00 00 00 00 08 00 00 00
  can0  1806E5F4   [8]  02 22 01 F4 01 64 00 00
  can0  1806E5F4   [8]  02 22 01 F4 01 64 00 00
  can0  1806E5F4   [8]  02 22 01 F4 01 64 00 00
  can0  1806E5F4   [8]  02 22 01 F4 01 64 00 00
  can0  18FF50E5   [8]  00 00 00 00 08 00 00 00
  can0  1806E5F4   [8]  02 22 01 F4 01 64 00 00
  can0  1806E5F4   [8]  02 22 01 F4 01 64 00 00
  can0  1806E5F4   [8]  02 22 01 F4 01 64 00 00
  can0  1806E5F4   [8]  02 22 01 F4 01 64 00 00
  can0  18FF50E5   [8]  00 00 00 00 08 00 00 00
  can0  1806E5F4   [8]  02 22 01 F4 01 64 00 00
  can0  1806E5F4   [8]  02 22 01 F4 01 64 00 00
  can0  1806E5F4   [8]  02 22 01 F4 01 64 00 00
  can0  1806E5F4   [8]  02 22 01 F4 01 64 00 00
  can0  18FF50E5   [8]  00 00 00 00 08 00 00 00
  can0  1806E5F4   [8]  02 22 01 F4 01 64 00 00
  can0  1806E5F4   [8]  02 22 01 F4 01 64 00 00
  can0  1806E5F4   [8]  02 22 01 F4 01 64 00 00
  can0  1806E5F4   [8]  02 22 01 F4 01 64 00 00
  can0  18FF50E5   [8]  00 00 00 00 08 00 00 00
  can0  1806E5F4   [8]  02 22 01 F4 01 64 00 00
  can0  1806E5F4   [8]  02 22 01 F4 01 64 00 00
  can0  1806E5F4   [8]  02 22 01 F4 01 64 00 00
  can0  1806E5F4   [8]  02 22 01 F4 01 64 00 00
  can0  18FF50E5   [8]  00 00 00 00 08 00 00 00
  can0  1806E5F4   [8]  02 22 01 F4 01 64 00 00
  can0  1806E5F4   [8]  02 22 01 F4 01 64 00 00
  can0  1806E5F4   [8]  02 22 01 F4 01 64 00 00
  can0  1806E5F4   [8]  02 22 01 F4 01 64 00 00
  can0  18FF50E5   [8]  00 00 00 00 08 00 00 00
  can0  1806E5F4   [8]  02 22 01 F4 01 64 00 00
  can0  1806E5F4   [8]  02 22 01 F4 01 64 00 00
  can0  1806E5F4   [8]  02 22 01 F4 01 64 00 00
  can0  1806E5F4   [8]  02 22 01 F4 01 64 00 00
  can0  18FF50E5   [8]  00 00 00 00 08 00 00 00
  can0  1806E5F4   [8]  02 22 01 F4 01 64 00 00
  can0  1806E5F4   [8]  02 22 01 F4 01 64 00 00
  can0  1806E5F4   [8]  02 22 01 F4 01 64 00 00
  can0  1806E5F4   [8]  02 22 01 F4 01 64 00 00
  can0  18FF50E5   [8]  00 00 00 00 08 00 00 00
  can0  1806E5F4   [8]  02 22 01 F4 01 64 00 00
  can0  1806E5F4   [8]  02 22 01 F4 01 64 00 00
  can0  1806E5F4   [8]  02 22 01 F4 01 64 00 00
  can0  1806E5F4   [8]  02 22 01 F4 01 64 00 00
  can0  18FF50E5   [8]  00 00 00 00 08 00 00 00
  can0  1806E5F4   [8]  02 22 01 F4 01 64 00 00
  can0  1806E5F4   [8]  02 22 01 F4 01 64 00 00
  can0  1806E5F4   [8]  02 22 01 F4 01 64 00 00
  can0  18FF50E5   [8]  00 00 00 00 08 00 00 00
  can0  1806E5F4   [8]  02 22 01 F4 01 64 00 00
  can0  1806E5F4   [8]  02 22 01 F4 01 64 00 00
  can0  1806E5F4   [8]  02 22 01 F4 01 64 00 00
  can0  1806E5F4   [8]  02 22 01 F4 01 64 00 00
  can0  18FF50E5   [8]  00 00 00 00 08 00 00 00
  can0  1806E5F4   [8]  02 22 01 F4 01 64 00 00
  can0  1806E5F4   [8]  02 22 01 F4 01 64 00 00
  can0  1806E5F4   [8]  02 22 01 F4 01 64 00 00
  can0  1806E5F4   [8]  02 22 01 F4 01 64 00 00
  can0  18FF50E5   [8]  00 00 00 00 08 00 00 00
  can0  1806E5F4   [8]  02 22 01 F4 01 64 00 00
  can0  1806E5F4   [8]  02 22 01 F4 01 64 00 00
  can0  1806E5F4   [8]  02 22 01 F4 01 64 00 00
  can0  1806E5F4   [8]  02 22 01 F4 01 64 00 00
  can0  18FF50E5   [8]  00 00 00 00 08 00 00 00
  can0  1806E5F4   [8]  02 22 01 F4 01 64 00 00
  can0  1806E5F4   [8]  02 22 01 F4 01 64 00 00
  can0  1806E5F4   [8]  02 22 01 F4 01 64 00 00
  can0  1806E5F4   [8]  02 22 01 F4 01 64 00 00
  can0  18FF50E5   [8]  00 00 00 00 08 00 00 00
  can0  1806E5F4   [8]  02 22 01 F4 01 64 00 00
  can0  1806E5F4   [8]  02 22 01 F4 01 64 00 00
  can0  1806E5F4   [8]  02 22 01 F4 01 64 00 00
  can0  1806E5F4   [8]  02 22 01 F4 01 64 00 00
  can0  18FF50E5   [8]  00 00 00 00 08 00 00 00
  can0  1806E5F4   [8]  02 22 01 F4 01 64 00 00
  can0  1806E5F4   [8]  02 22 01 F4 01 64 00 00
  can0  1806E5F4   [8]  02 22 01 F4 01 64 00 00
  can0  1806E5F4   [8]  02 22 01 F4 01 64 00 00
  can0  18FF50E5   [8]  00 00 00 00 08 00 00 00
  can0  1806E5F4   [8]  02 22 01 F4 01 64 00 00
  can0  1806E5F4   [8]  02 22 01 F4 01 64 00 00
  can0  1806E5F4   [8]  02 22 01 F4 01 64 00 00
  can0  1806E5F4   [8]  02 22 01 F4 01 64 00 00
  can0  18FF50E5   [8]  00 00 00 00 08 00 00 00
  can0  1806E5F4   [8]  02 22 01 F4 01 64 00 00
  can0  1806E5F4   [8]  02 22 01 F4 01 64 00 00
  can0  1806E5F4   [8]  02 22 01 F4 01 64 00 00
  can0  18FF50E5   [8]  00 00 00 00 08 00 00 00
  can0  1806E5F4   [8]  02 22 01 F4 01 64 00 00
  can0  1806E5F4   [8]  02 22 01 F4 01 64 00 00
  can0  1806E5F4   [8]  02 22 01 F4 01 64 00 00
  can0  1806E5F4   [8]  02 22 01 F4 01 64 00 00
  can0  18FF50E5   [8]  00 00 00 00 08 00 00 00
  can0  1806E5F4   [8]  02 22 01 F4 01 64 00 00
  can0  1806E5F4   [8]  02 22 01 F4 01 64 00 00
  can0  1806E5F4   [8]  02 22 01 F4 01 64 00 00
  can0  1806E5F4   [8]  02 22 01 F4 01 64 00 00
  can0  18FF50E5   [8]  00 00 00 00 08 00 00 00
  can0  1806E5F4   [8]  02 22 01 F4 01 64 00 00
  can0  1806E5F4   [8]  02 22 01 F4 01 64 00 00
  can0  1806E5F4   [8]  02 22 01 F4 01 64 00 00
  can0  1806E5F4   [8]  02 22 01 F4 01 64 00 00
  can0  18FF50E5   [8]  00 00 00 00 08 00 00 00
  can0  1806E5F4   [8]  02 22 01 F4 01 64 00 00
  can0  1806E5F4   [8]  02 22 01 F4 01 64 00 00
  can0  1806E5F4   [8]  02 22 01 F4 01 64 00 00
  can0  1806E5F4   [8]  02 22 01 F4 01 64 00 00
  can0  18FF50E5   [8]  00 00 00 00 08 00 00 00
  can0  1806E5F4   [8]  02 22 01 F4 01 64 00 00
  can0  1806E5F4   [8]  02 22 01 F4 01 64 00 00
  can0  1806E5F4   [8]  02 22 01 F4 01 64 00 00
  can0  1806E5F4   [8]  02 22 01 F4 01 64 00 00
  can0  18FF50E5   [8]  00 00 00 00 08 00 00 00
  can0  1806E5F4   [8]  02 22 01 F4 01 64 00 00
  can0  1806E5F4   [8]  02 22 01 F4 01 64 00 00
  can0  1806E5F4   [8]  02 22 01 F4 01 64 00 00
  can0  1806E5F4   [8]  02 22 01 F4 01 64 00 00
  can0  18FF50E5   [8]  00 00 00 00 08 00 00 00
  can0  1806E5F4   [8]  02 22 01 F4 01 64 00 00
  can0  1806E5F4   [8]  02 22 01 F4 01 64 00 00
  can0  1806E5F4   [8]  02 22 01 F4 01 64 00 00
  can0  1806E5F4   [8]  02 22 01 F4 01 64 00 00
  can0  18FF50E5   [8]  00 00 00 00 08 00 00 00
  can0  1806E5F4   [8]  02 22 01 F4 01 64 00 00
  can0  1806E5F4   [8]  02 22 01 F4 01 64 00 00
  can0  1806E5F4   [8]  02 22 01 F4 01 64 00 00
  can0  1806E5F4   [8]  02 22 01 F4 01 64 00 00
  can0  18FF50E5   [8]  00 00 00 00 08 00 00 00
  can0  1806E5F4   [8]  02 22 01 F4 01 64 00 00
  can0  1806E5F4   [8]  02 22 01 F4 01 64 00 00
  can0  1806E5F4   [8]  02 22 01 F4 01 64 00 00
  can0  1806E5F4   [8]  02 22 01 F4 01 64 00 00
  can0  18FF50E5   [8]  00 00 00 00 08 00 00 00
  can0  1806E5F4   [8]  02 22 01 F4 01 64 00 00
  can0  1806E5F4   [8]  02 22 01 F4 01 64 00 00
  can0  1806E5F4   [8]  02 22 01 F4 01 64 00 00
  can0  18FF50E5   [8]  00 00 00 00 08 00 00 00
  can0  1806E5F4   [8]  02 22 01 F4 01 64 00 00
  can0  1806E5F4   [8]  02 22 01 F4 01 64 00 00
  can0  1806E5F4   [8]  02 22 01 F4 01 64 00 00
  can0  1806E5F4   [8]  02 22 01 F4 01 64 00 00
  can0  18FF50E5   [8]  00 00 00 00 08 00 00 00
  can0  1806E5F4   [8]  02 22 01 F4 01 64 00 00
  can0  1806E5F4   [8]  02 22 01 F4 01 64 00 00
  can0  1806E5F4   [8]  02 22 01 F4 01 64 00 00
  can0  1806E5F4   [8]  02 22 01 F4 01 64 00 00
  can0  18FF50E5   [8]  00 00 00 00 08 00 00 00
  can0  1806E5F4   [8]  02 22 01 F4 01 64 00 00
  can0  1806E5F4   [8]  02 22 01 F4 01 64 00 00
  can0  1806E5F4   [8]  02 22 01 F4 01 64 00 00
  can0  1806E5F4   [8]  02 22 01 F4 01 64 00 00
  can0  18FF50E5   [8]  00 00 00 00 08 00 00 00
  can0  1806E5F4   [8]  02 22 01 F4 01 64 00 00
  can0  1806E5F4   [8]  02 22 01 F4 01 64 00 00
  can0  1806E5F4   [8]  02 22 01 F4 01 64 00 00
  can0  1806E5F4   [8]  02 22 01 F4 01 64 00 00
  can0  18FF50E5   [8]  00 00 00 00 08 00 00 00
  can0  1806E5F4   [8]  02 22 01 F4 01 64 00 00
  can0  1806E5F4   [8]  02 22 01 F4 01 64 00 00
  can0  1806E5F4   [8]  02 22 01 F4 01 64 00 00
  can0  1806E5F4   [8]  02 22 01 F4 01 64 00 00
  can0  18FF50E5   [8]  00 00 00 00 08 00 00 00
  can0  1806E5F4   [8]  02 22 01 F4 01 64 00 00
  can0  1806E5F4   [8]  02 22 01 F4 01 64 00 00
  can0  1806E5F4   [8]  02 22 01 F4 01 64 00 00
  can0  1806E5F4   [8]  02 22 01 F4 01 64 00 00
  can0  18FF50E5   [8]  00 00 00 00 08 00 00 00
  can0  1806E5F4   [8]  02 22 01 F4 01 64 00 00
  can0  1806E5F4   [8]  02 22 01 F4 01 64 00 00
  can0  1806E5F4   [8]  02 22 01 F4 01 64 00 00
  can0  1806E5F4   [8]  02 22 01 F4 01 64 00 00
  can0  18FF50E5   [8]  00 00 00 00 08 00 00 00
  can0  1806E5F4   [8]  02 22 01 F4 01 64 00 00
  can0  1806E5F4   [8]  02 22 01 F4 01 64 00 00
  can0  1806E5F4   [8]  02 22 01 F4 01 64 00 00
  can0  1806E5F4   [8]  02 22 01 F4 01 64 00 00
  can0  18FF50E5   [8]  00 00 00 00 08 00 00 00
  can0  1806E5F4   [8]  02 22 01 F4 01 64 00 00
  can0  1806E5F4   [8]  02 22 01 F4 01 64 00 00
  can0  1806E5F4   [8]  02 22 01 F4 01 64 00 00
  can0  1806E5F4   [8]  02 22 01 F4 01 64 00 00
  can0  18FF50E5   [8]  00 00 00 00 08 00 00 00
  can0  1806E5F4   [8]  02 22 01 F4 01 64 00 00
  can0  1806E5F4   [8]  02 22 01 F4 01 64 00 00
  can0  1806E5F4   [8]  02 22 01 F4 01 64 00 00
  can0  18FF50E5   [8]  00 00 00 00 08 00 00 00
  can0  1806E5F4   [8]  02 22 01 F4 01 64 00 00
  can0  1806E5F4   [8]  02 22 01 F4 01 64 00 00
  can0  1806E5F4   [8]  02 22 01 F4 01 64 00 00
  can0  1806E5F4   [8]  02 22 01 F4 01 64 00 00
  can0  18FF50E5   [8]  00 00 00 00 08 00 00 00
  can0  1806E5F4   [8]  02 22 01 F4 01 64 00 00
  can0  1806E5F4   [8]  02 22 01 F4 01 64 00 00
  can0  1806E5F4   [8]  02 22 01 F4 01 64 00 00
  can0  1806E5F4   [8]  02 22 01 F4 01 64 00 00
  can0  18FF50E5   [8]  00 00 00 00 08 00 00 00
  can0  1806E5F4   [8]  02 22 01 F4 01 64 00 00
  can0  1806E5F4   [8]  02 22 01 F4 01 64 00 00
  can0  1806E5F4   [8]  02 22 01 F4 01 64 00 00
  can0  1806E5F4   [8]  02 22 01 F4 01 64 00 00
  can0  18FF50E5   [8]  00 00 00 00 08 00 00 00
  can0  1806E5F4   [8]  02 22 01 F4 01 64 00 00
  can0  1806E5F4   [8]  02 22 01 F4 01 64 00 00
  can0  1806E5F4   [8]  02 22 01 F4 01 64 00 00
  can0  1806E5F4   [8]  02 22 01 F4 01 64 00 00
  can0  18FF50E5   [8]  00 00 00 00 08 00 00 00
  can0  1806E5F4   [8]  02 22 01 F4 01 64 00 00
  can0  1806E5F4   [8]  02 22 01 F4 01 64 00 00
  can0  1806E5F4   [8]  02 22 01 F4 01 64 00 00
  can0  1806E5F4   [8]  02 22 01 F4 01 64 00 00
  can0  18FF50E5   [8]  00 00 00 00 08 00 00 00
  can0  1806E5F4   [8]  02 22 01 F4 01 64 00 00
  can0  1806E5F4   [8]  02 22 01 F4 01 64 00 00
  can0  1806E5F4   [8]  02 22 01 F4 01 64 00 00
  can0  1806E5F4   [8]  02 22 01 F4 01 64 00 00
  can0  18FF50E5   [8]  00 00 00 00 08 00 00 00
  can0  1806E5F4   [8]  02 22 01 F4 01 64 00 00
  can0  1806E5F4   [8]  02 22 01 F4 01 64 00 00
  can0  1806E5F4   [8]  02 22 01 F4 01 64 00 00
  can0  1806E5F4   [8]  02 22 01 F4 01 64 00 00
  can0  18FF50E5   [8]  00 00 00 00 08 00 00 00
  can0  1806E5F4   [8]  02 22 01 F4 01 64 00 00
  can0  1806E5F4   [8]  02 22 01 F4 01 64 00 00
  can0  1806E5F4   [8]  02 22 01 F4 01 64 00 00
  can0  1806E5F4   [8]  02 22 01 F4 01 64 00 00
  can0  18FF50E5   [8]  00 00 00 00 08 00 00 00
  can0  1806E5F4   [8]  02 22 01 F4 01 64 00 00
  can0  1806E5F4   [8]  02 22 01 F4 01 64 00 00
  can0  1806E5F4   [8]  02 22 01 F4 01 64 00 00
  can0  18FF50E5   [8]  00 00 00 00 08 00 00 00
  can0  1806E5F4   [8]  02 22 01 F4 01 64 00 00
  can0  1806E5F4   [8]  02 22 01 F4 01 64 00 00
  can0  1806E5F4   [8]  02 22 01 F4 01 64 00 00
  can0  1806E5F4   [8]  02 22 01 F4 01 64 00 00
  can0  18FF50E5   [8]  00 00 00 00 08 00 00 00
  can0  1806E5F4   [8]  02 22 01 F4 01 64 00 00
  can0  1806E5F4   [8]  02 22 01 F4 01 64 00 00
  can0  1806E5F4   [8]  02 22 01 F4 01 64 00 00
  can0  1806E5F4   [8]  02 22 01 F4 01 64 00 00
  can0  18FF50E5   [8]  00 00 00 00 08 00 00 00
  can0  1806E5F4   [8]  02 22 01 F4 01 64 00 00
  can0  1806E5F4   [8]  02 22 01 F4 01 64 00 00
  can0  1806E5F4   [8]  02 22 01 F4 01 64 00 00
  can0  1806E5F4   [8]  02 22 01 F4 01 64 00 00
  can0  18FF50E5   [8]  00 00 00 00 08 00 00 00
  can0  1806E5F4   [8]  02 22 01 F4 01 64 00 00
  can0  1806E5F4   [8]  02 22 01 F4 01 64 00 00
  can0  1806E5F4   [8]  02 22 01 F4 01 64 00 00
  can0  1806E5F4   [8]  02 22 01 F4 01 64 00 00
  can0  18FF50E5   [8]  00 00 00 00 08 00 00 00
  can0  1806E5F4   [8]  02 22 01 F4 01 64 00 00
  can0  1806E5F4   [8]  02 22 01 F4 01 64 00 00
  can0  1806E5F4   [8]  02 22 01 F4 01 64 00 00
